(1617469247.936116) can0 400#00000400
(1617469247.937764) can0 300#035A0B5A5F0064
(1617469247.986774) can0 401#318D000000000000
(1617469247.988338) can0 300#035A0B5A5F0064
(1617469248.037933) can0 400#00000400
(1617469248.039623) can0 300#035A0B5A5F0064
(1617469248.085684) can0 401#308D000000000000
(1617469248.087239) can0 300#035A0B5A5F0064
(1617469248.104707) can0 201#0000000068
(1617469248.117136) can0 203#000000000000FF0F
(1617469248.129428) can0 204#0000000000000000
(1617469248.136907) can0 400#00000400
(1617469248.138608) can0 300#035A0B5A5F0064
(1617469248.141724) can0 202#DA00000000000000
(1617469248.153983) can0 666#5207010152016226
(1617469248.166305) can0 665#0000000053175300
(1617469248.178635) can0 200#0000000000000000
(1617469248.185943) can0 100#0322020200000000
(1617469248.188846) can0 401#308D000000000000
(1617469248.189887) can0 101#101B620202433937
(1617469248.190457) can0 100#300000
(1617469248.192697) can0 300#035A0B5A5F0064
(1617469248.193970) can0 101#213237322D313030
(1617469248.198078) can0 101#223230313230382D
(1617469248.202177) can0 101#23332D3531373700
(1617469248.202962) can0 100#0322020300000000
(1617469248.206286) can0 101#1017620203393833
(1617469248.206857) can0 100#300000
(1617469248.207241) can0 201#0000000060
(1617469248.210380) can0 101#2137303130323033
(1617469248.214474) can0 101#2231323230333031
(1617469248.218585) can0 101#23343631BFA60001
(1617469248.219386) can0 100#0322020400000000
(1617469248.219869) can0 203#000000000000FF0F
(1617469248.222680) can0 101#1017620204575342
(1617469248.223255) can0 100#300000
(1617469248.226771) can0 101#2143363031313135
(1617469248.230892) can0 101#223531334E000000
(1617469248.234996) can0 101#23000000BFA60001
(1617469248.235776) can0 100#0322020700000000
(1617469248.239121) can0 101#05620207B80BFAB2
(1617469248.239869) can0 100#0322020600000000
(1617469248.241828) can0 400#00000400
(1617469248.243181) can0 101#05620206F508FAB2
(1617469248.243621) can0 300#035A0B5A5F0064
(1617469248.288467) can0 401#308D000000000000
(1617469248.290024) can0 300#035A0B5A5F0064
(1617469248.309708) can0 201#0000000060
(1617469248.322148) can0 203#000000000000FF0F
(1617469248.337475) can0 400#00000400
(1617469248.339184) can0 300#035A0B5A5F0064
(1617469248.386745) can0 401#308D000000000000
(1617469248.388807) can0 300#035A0B5A5F0064
(1617469248.412215) can0 201#0000000060
(1617469248.424639) can0 203#000000000000FF0F
(1617469248.436484) can0 400#00000400
(1617469248.438190) can0 300#035A0B5A5F0064
(1617469248.486762) can0 401#308D000000000000
(1617469248.488426) can0 300#035A0B5A5F0064
(1617469248.514721) can0 201#0000000060
(1617469248.527159) can0 203#000000000000FF0F
(1617469248.537591) can0 400#01002C00
(1617469248.539932) can0 300#035A0B5A5F0064
(1617469248.588228) can0 401#208D000000000000
(1617469248.589787) can0 300#035A0B5A5F0064
(1617469248.617233) can0 201#0000000060
(1617469248.629659) can0 203#000000000000FF0F
(1617469248.636979) can0 400#01000C00
(1617469248.638681) can0 300#035A0B5A5F0064
(1617469248.686715) can0 401#208D000000000000
(1617469248.688658) can0 300#035A0B5A5F0064
(1617469248.719729) can0 201#0000000060
(1617469248.732170) can0 203#000000000000FF0F
(1617469248.736952) can0 400#01000C00
(1617469248.738657) can0 300#035A0B5A5F0064
(1617469248.787346) can0 401#208D000000000000
(1617469248.789022) can0 300#035A0B5A5F0064
(1617469248.822189) can0 201#0000000060
(1617469248.834616) can0 203#000000000000FF0F
(1617469248.837573) can0 400#01000C00
(1617469248.839564) can0 300#035A0B5A5F0064
(1617469248.887085) can0 401#208D000000000000
(1617469248.888727) can0 300#035A0B5A5F0064
(1617469248.924684) can0 201#0000000060
(1617469248.937125) can0 203#000000000000FF0F
(1617469248.937548) can0 400#01000C00
(1617469248.939262) can0 300#035A0B5A5F0064
(1617469248.987276) can0 401#208D000000000000
(1617469248.989298) can0 300#035A0B5A5F0064
(1617469249.027181) can0 201#0000000060
(1617469249.036910) can0 400#01000C00
(1617469249.038611) can0 300#035A0B5A5F0064
(1617469249.039603) can0 203#000000000000FF0F
(1617469249.087955) can0 401#2B8D000000000000
(1617469249.089584) can0 300#035A0B5A5F0064
(1617469249.129689) can0 201#0000000060
(1617469249.136750) can0 400#01000C00
(1617469249.138742) can0 300#035A0B5A5F0064
(1617469249.142113) can0 203#000000000000FF0F
(1617469249.154393) can0 204#0000000000000000
(1617469249.166684) can0 202#DA0D00009E240500
(1617469249.187504) can0 401#2B8D000000000000
(1617469249.189142) can0 300#035A0B5A5F0064
(1617469249.232199) can0 201#0000000060
(1617469249.237000) can0 400#01000C00
(1617469249.238701) can0 300#035A0B5A5F0064
(1617469249.244609) can0 203#000000000000FF0F
(1617469249.286862) can0 401#2B8D000000000000
(1617469249.289189) can0 300#035A0B5A5F0064
(1617469249.334685) can0 201#0000000062
(1617469249.338302) can0 400#01000C00
(1617469249.340024) can0 300#035A0B5A5F0064
(1617469249.347105) can0 203#000000000000FF0F
(1617469249.387591) can0 402#1E00000028CA0100
(1617469249.393463) can0 450#1001
(1617469249.435393) can0 451#10010000235A64
(1617469249.435694) can0 450#0601
(1617469249.437191) can0 201#0000000062
(1617469249.438749) can0 400#01000C00
(1617469249.440476) can0 300#035A0B5A5F0064
(1617469249.449610) can0 203#000000000000FF0F
(1617469249.484886) can0 451#060100001E
(1617469249.485193) can0 450#0801
(1617469249.488589) can0 401#2D8D000000000000
(1617469249.490226) can0 300#035A0B5A5F0064
(1617469249.534973) can0 451#0801000028
(1617469249.535278) can0 450#0901
(1617469249.538015) can0 400#01000C00
(1617469249.539717) can0 300#035A0B5A5F0064
(1617469249.540092) can0 201#0000000062
(1617469249.552135) can0 203#000000000000FF0F
(1617469249.586432) can0 451#090100005F
(1617469249.590440) can0 401#2D8D000000000000
(1617469249.592035) can0 300#035A0B5A5F0064
(1617469249.593631) can0 454#035A0B5A5F0064
(1617469249.637145) can0 400#01000C00
(1617469249.638833) can0 300#035A0B5A5F0064
(1617469249.642100) can0 201#0000000062
(1617469249.643634) can0 454#035A0B5A5F0064
(1617469249.654530) can0 203#000000000000FF0F
(1617469249.687256) can0 401#2D8D000000000000
(1617469249.688884) can0 300#035A0B5A5F0064
(1617469249.693627) can0 454#035A0B5A5F0064
(1617469249.736792) can0 400#01000C00
(1617469249.738780) can0 300#035A0B5A5F0064
(1617469249.743626) can0 454#035A0B5A5F0064
(1617469249.744581) can0 201#0000000062
(1617469249.757041) can0 203#000000000000FF0F
(1617469249.787133) can0 401#2D8D000000000000
(1617469249.788767) can0 300#035A0B5A5F0064
(1617469249.793627) can0 454#035A0B5A5F0064
(1617469249.837058) can0 400#01000C00
(1617469249.838759) can0 300#035A0B5A5F0064
(1617469249.843627) can0 454#035A0B5A5F0064
(1617469249.847101) can0 201#0000000062
(1617469249.859534) can0 203#000000000000FF0F
(1617469249.887356) can0 401#2D8D000000000000
(1617469249.889271) can0 300#035A0B5A5F0064
(1617469249.893622) can0 454#035A0B5A5F0064
(1617469249.936807) can0 400#01000C00
(1617469249.938524) can0 300#035A0B5A5F0064
(1617469249.943625) can0 454#035A0B5A5F0064
(1617469249.943901) can0 450#1001
(1617469249.949594) can0 201#0000000062
(1617469249.962049) can0 203#000000000000FF0F
(1617469249.985787) can0 451#10010000235A64
(1617469249.986086) can0 450#0601
(1617469249.989167) can0 401#238D000000000000
(1617469249.991015) can0 300#035A0B5A5F0064
(1617469249.993622) can0 454#035A0B5A5F0064
(1617469250.034618) can0 451#060100001E
(1617469250.034924) can0 450#0801
(1617469250.037740) can0 400#01000C00
(1617469250.039841) can0 300#035A0B5A5F0064
(1617469250.043627) can0 454#035A0B5A5F0064
(1617469250.052057) can0 201#0000000062
(1617469250.064482) can0 203#000000000000FF0F
(1617469250.084941) can0 451#0801000028
(1617469250.085245) can0 450#0901
(1617469250.089261) can0 401#238D000000000000
(1617469250.090815) can0 300#035A0B5A5F0064
(1617469250.093622) can0 454#035A0B5A5F0064
(1617469250.137201) can0 451#090100005F
(1617469250.140585) can0 400#01000C00
(1617469250.142296) can0 300#035A0B5A5F0064
(1617469250.143621) can0 454#035A0B5A5F0064
(1617469250.154551) can0 201#0000000062
(1617469250.167001) can0 203#000000000000FF0F
(1617469250.179279) can0 204#0000000000000000
(1617469250.187030) can0 401#238D000000000000
(1617469250.188953) can0 300#035A0B5A5F0064
(1617469250.191498) can0 202#DA0D00009E240500
(1617469250.193623) can0 454#035A0B5A5F0064
(1617469250.237078) can0 400#01000C00
(1617469250.238765) can0 300#035A0B5A5F0064
(1617469250.243623) can0 454#035A0B5A5F0064
(1617469250.257012) can0 201#0000000062
(1617469250.269430) can0 203#000000000000FF0F
(1617469250.287343) can0 401#238D000000000000
(1617469250.288904) can0 300#035A0B5A5F0064
(1617469250.293620) can0 454#035A0B5A5F0064
(1617469250.336778) can0 400#01000C00
(1617469250.339243) can0 300#035A0B5A5F0064
(1617469250.343622) can0 454#035A0B5A5F0064
(1617469250.359457) can0 201#0000000062
(1617469250.371907) can0 203#000000000000FF0F
(1617469250.388591) can0 401#238D000000000000
(1617469250.390164) can0 300#035A0B5A5F0064
(1617469250.393618) can0 454#035A0B5A5F0064
(1617469250.437421) can0 400#01000C00
(1617469250.439132) can0 300#035A0B5A5F0064
(1617469250.443621) can0 454#035A0B5A5F0064
(1617469250.461956) can0 201#0000000062
(1617469250.474400) can0 203#000000000000FF0F
(1617469250.486347) can0 401#268D000000000000
(1617469250.487992) can0 300#035A0B5A5F0064
(1617469250.493619) can0 454#035A0B5A5F0064
(1617469250.493897) can0 450#1001
(1617469250.535047) can0 451#10010000235A64
(1617469250.535345) can0 450#0601
(1617469250.538394) can0 400#01000C00
(1617469250.540093) can0 300#035A0B5A5F0064
(1617469250.543614) can0 454#035A0B5A5F0064
(1617469250.564410) can0 201#0000000062
(1617469250.576860) can0 203#000000000000FF0F
(1617469250.585738) can0 451#060100001E
(1617469250.586045) can0 450#0801
(1617469250.589190) can0 401#268D000000000000
(1617469250.591516) can0 300#035A0B5A5F0064
(1617469250.593618) can0 454#035A0B5A5F0064
(1617469250.636502) can0 451#0801000028
(1617469250.636801) can0 450#0901
(1617469250.640268) can0 400#01000C00
(1617469250.641965) can0 300#035A0B5A5F0064
(1617469250.643615) can0 454#035A0B5A5F0064
(1617469250.666923) can0 201#0000000062
(1617469250.679352) can0 203#000000000000FF0F
(1617469250.685445) can0 451#090100005F
(1617469250.689104) can0 401#268D000000000000
(1617469250.690670) can0 300#035A0B5A5F0064
(1617469250.693612) can0 454#035A0B5A5F0064
(1617469250.737026) can0 400#01000C00
(1617469250.738712) can0 300#035A0B5A5F0064
(1617469250.743613) can0 454#035A0B5A5F0064
(1617469250.769414) can0 201#0000000062
(1617469250.781857) can0 203#000000000000FF0F
(1617469250.787076) can0 401#268D000000000000
(1617469250.788911) can0 300#035A0B5A5F0064
(1617469250.793611) can0 454#035A0B5A5F0064
(1617469250.836916) can0 400#01000C00
(1617469250.838609) can0 300#035A0B5A5F0064
(1617469250.843619) can0 454#035A0B5A5F0064
(1617469250.871926) can0 201#0000000062
(1617469250.884361) can0 203#000000000000FF0F
(1617469250.887377) can0 403#590000009CDC0500
(1617469250.893612) can0 454#035A0B5A5F0064
(1617469250.937187) can0 400#01000C00
(1617469250.939178) can0 300#035A0B5A5F0064
(1617469250.943612) can0 454#035A0B5A5F0064
(1617469250.974421) can0 201#0000000062
(1617469250.986142) can0 401#288D000000000000
(1617469250.986849) can0 203#0000000000000400
(1617469250.987971) can0 300#035A0B5A5F0064
(1617469250.993614) can0 454#035A0B5A5F0064
(1617469251.037318) can0 400#01000C00
(1617469251.039038) can0 300#035A0B5A5F0064
(1617469251.043610) can0 454#035A0B5A5F0064
(1617469251.043890) can0 450#1001
(1617469251.076934) can0 201#0000000062
(1617469251.085535) can0 451#10010000235A64
(1617469251.085833) can0 450#0601
(1617469251.089242) can0 401#288D000000000000
(1617469251.089721) can0 203#0000000000000400
(1617469251.090786) can0 300#035A0B5A5F0064
(1617469251.093609) can0 454#035A0B5A5F0064
(1617469251.135521) can0 451#060100001E
(1617469251.135831) can0 450#0801
(1617469251.139500) can0 400#01000C00
(1617469251.141190) can0 300#035A0B5A28005A
(1617469251.143611) can0 454#035A0B5A28005A
(1617469251.179427) can0 201#0000000062
(1617469251.187320) can0 451#0801000028
(1617469251.187625) can0 450#0901
(1617469251.191049) can0 401#288D000000000000
(1617469251.191859) can0 203#0000000000000400
(1617469251.192595) can0 300#035A0B5A28005A
(1617469251.193609) can0 454#035A0B5A28005A
(1617469251.204145) can0 204#0000000000000000
(1617469251.216433) can0 202#DA0D00009E240500
(1617469251.228699) can0 666#5207010152016226
(1617469251.235309) can0 451#090100005F
(1617469251.238969) can0 400#01000C00
(1617469251.240678) can0 300#035A0B5A28005A
(1617469251.241154) can0 665#0000000053175300
(1617469251.243615) can0 454#035A0B5A28005A
(1617469251.253343) can0 200#1E0028CA01000100
(1617469251.281938) can0 201#0000000062
(1617469251.287345) can0 401#288D000000000000
(1617469251.288888) can0 300#035A0B5A28005A
(1617469251.293623) can0 454#035A0B5A28005A
(1617469251.294344) can0 203#0000000000000400
(1617469251.337104) can0 400#01000C00
(1617469251.338790) can0 300#035A0B5A28005A
(1617469251.343613) can0 454#035A0B5A28005A
(1617469251.384427) can0 201#0000000062
(1617469251.387057) can0 401#288D000000000000
(1617469251.389375) can0 300#035A0B5A28005A
(1617469251.393604) can0 454#035A0B5A28005A
(1617469251.396858) can0 203#0000000000000400
(1617469251.437251) can0 400#01000C00
(1617469251.438949) can0 300#035A0B5A28005A
(1617469251.443610) can0 454#035A0B5A28005A
(1617469251.486936) can0 201#0000000062
(1617469251.487613) can0 401#278D000000000000
(1617469251.489178) can0 300#035A0B5A28005A
(1617469251.493605) can0 454#035A0B5A28005A
(1617469251.499342) can0 203#0000000000000400
(1617469251.536870) can0 400#01000C00
(1617469251.538977) can0 300#035A0B5A28005A
(1617469251.543606) can0 454#035A0B5A28005A
(1617469251.587084) can0 401#278D000000000000
(1617469251.588650) can0 300#035A0B5A28005A
(1617469251.589428) can0 201#0000000062
(1617469251.593605) can0 454#035A0B5A28005A
(1617469251.593886) can0 450#1001
(1617469251.601871) can0 203#0000000000000400
(1617469251.635714) can0 451#10010000235A64
(1617469251.636015) can0 450#0601
(1617469251.638858) can0 400#01000C00
(1617469251.641331) can0 300#035A0B5A28005A
(1617469251.643611) can0 454#035A0B5A28005A
(1617469251.686589) can0 451#060100001E
(1617469251.686893) can0 450#0801
(1617469251.690529) can0 401#278D000000000000
(1617469251.691929) can0 201#0000000062
(1617469251.692363) can0 300#035A0B5A28005A
(1617469251.693604) can0 454#035A0B5A28005A
(1617469251.704362) can0 203#0000000000000400
(1617469251.735329) can0 451#0801000028
(1617469251.735633) can0 450#0901
(1617469251.738820) can0 400#01000C00
(1617469251.740535) can0 300#035A0B5A28005A
(1617469251.743604) can0 454#035A0B5A28005A
(1617469251.785555) can0 451#090100005F
(1617469251.788839) can0 401#278D000000000000
(1617469251.790804) can0 300#035A0B5A28005A
(1617469251.793601) can0 454#035A0B5A28005A
(1617469251.794434) can0 201#0000000062
(1617469251.806872) can0 203#0000000000000400
(1617469251.836859) can0 400#01000C00
(1617469251.838838) can0 300#035A0B5A28005A
(1617469251.843609) can0 454#035A0B5A28005A
(1617469251.887212) can0 401#268D000000000000
(1617469251.888759) can0 300#035A0B5A28005A
(1617469251.893604) can0 454#035A0B5A28005A
(1617469251.896941) can0 201#0000000062
(1617469251.909369) can0 203#0000000000000400
(1617469251.936458) can0 400#01000C00
(1617469251.938164) can0 300#035A0B5A28005A
(1617469251.943605) can0 454#035A0B5A28005A
(1617469251.987823) can0 401#268D000000000000
(1617469251.989663) can0 300#035A0B5A1E0023
(1617469251.993587) can0 454#035A0B5A1E0023
(1617469251.999456) can0 201#0000000062
(1617469252.011869) can0 203#0000000000000400
(1617469252.036902) can0 400#01000C00
(1617469252.038600) can0 300#035A0B5A1E0023
(1617469252.043603) can0 454#035A0B5A1E0023
(1617469252.087442) can0 401#268D000000000000
(1617469252.088995) can0 300#035A0B5A1E0023
(1617469252.093596) can0 454#035A0B5A1E0023
(1617469252.101968) can0 201#0000000062
(1617469252.114367) can0 203#0000000000000400
(1617469252.136949) can0 400#01000C00
(1617469252.139073) can0 300#035A0B5A1E0023
(1617469252.143593) can0 454#035A0B5A1E0023
(1617469252.143870) can0 450#1001
(1617469252.185276) can0 451#10010000235A64
(1617469252.185573) can0 450#0601
(1617469252.189266) can0 401#268D000000000000
(1617469252.190829) can0 300#035A0B5A1E0023
(1617469252.193587) can0 454#035A0B5A1E0023
(1617469252.204410) can0 201#0000000062
(1617469252.216833) can0 203#0000000000000400
(1617469252.229123) can0 204#0000000000000000
(1617469252.237182) can0 451#060100001E
(1617469252.237491) can0 450#0801
(1617469252.240695) can0 400#01000C00
(1617469252.241400) can0 202#DA0D00009E240500
(1617469252.242509) can0 300#035A0B5A1E0023
(1617469252.243592) can0 454#035A0B5A1E0023
(1617469252.285482) can0 451#0801000028
(1617469252.285785) can0 450#0901
(1617469252.289149) can0 401#268D000000000000
(1617469252.290717) can0 300#035A0B5A1E0023
(1617469252.293585) can0 454#035A0B5A1E0023
(1617469252.306923) can0 201#0000000062
(1617469252.319325) can0 203#0000000000000400
(1617469252.335023) can0 451#090100005F
(1617469252.338709) can0 400#01000C00
(1617469252.340420) can0 300#035A0B5A1E0023
(1617469252.343594) can0 454#035A0B5A1E0023
(1617469252.387459) can0 402#1E00000028CA0100
(1617469252.393593) can0 454#035A0B5A1E0023
(1617469252.409403) can0 201#0000000062
(1617469252.421836) can0 203#0000000000000400
(1617469252.436159) can0 400#01000C00
(1617469252.437864) can0 300#035A0B5A1E0023
(1617469252.443596) can0 454#035A0B5A1E0023
(1617469252.488720) can0 401#258D000000000000
(1617469252.490279) can0 300#035A0B5A1E0023
(1617469252.493582) can0 454#035A0B5A1E0023
(1617469252.511926) can0 201#0000000062
(1617469252.524330) can0 203#0000000000000400
(1617469252.537519) can0 400#01000C00
(1617469252.539237) can0 300#035A0B5A1E0023
(1617469252.543582) can0 454#035A0B5A1E0023
(1617469252.587229) can0 401#258D000000000000
(1617469252.589188) can0 300#035A0B5A1E0023
(1617469252.593581) can0 454#035A0B5A1E0023
(1617469252.614420) can0 201#0000000062
(1617469252.626846) can0 203#0000000000000400
(1617469252.636821) can0 400#01000C00
(1617469252.638526) can0 300#035A0B5A1E0023
(1617469252.643591) can0 454#035A0B5A1E0023
(1617469252.687286) can0 401#258D000000000000
(1617469252.688852) can0 300#035A0B5A1E0023
(1617469252.693588) can0 454#035A0B5A1E0023
(1617469252.693863) can0 450#1001
(1617469252.716932) can0 201#0000000062
(1617469252.729323) can0 203#0000000000000400
(1617469252.736560) can0 451#10010000235A64
(1617469252.736863) can0 450#0601
(1617469252.740084) can0 400#01000C00
(1617469252.741915) can0 300#035A0B5A1E0023
(1617469252.743580) can0 454#035A0B5A1E0023
(1617469252.785602) can0 451#060100001E
(1617469252.785911) can0 450#0801
(1617469252.788942) can0 401#258D000000000000
(1617469252.790494) can0 300#035A0B5A1E0023
(1617469252.793579) can0 454#035A0B5A1E0023
(1617469252.819425) can0 201#0000000062
(1617469252.831846) can0 203#0000000000000400
(1617469252.835625) can0 451#0801000028
(1617469252.835933) can0 450#0901
(1617469252.838567) can0 400#01000C00
(1617469252.840777) can0 300#035A0B5A1E0023
(1617469252.843587) can0 454#035A0B5A1E0023
(1617469252.884734) can0 451#090100005F
(1617469252.887756) can0 401#268D000000000000
(1617469252.889595) can0 300#035A0B5A1E0023
(1617469252.893578) can0 454#035A0B5A1E0023
(1617469252.921884) can0 201#0000000062
(1617469252.934289) can0 203#0000000000000400
(1617469252.936757) can0 400#01000C00
(1617469252.938475) can0 300#035A0B5A1E0023
(1617469252.943588) can0 454#035A0B5A1E0023
(1617469252.987165) can0 401#268D000000000000
(1617469252.988725) can0 300#035A0B5A1E0023
(1617469252.993588) can0 454#035A0B5A1E0023
(1617469253.024377) can0 201#0000000062
(1617469253.036806) can0 203#0000000000000400
(1617469253.037143) can0 400#01000C00
(1617469253.038946) can0 300#035A0B5A1E0023
(1617469253.043579) can0 454#035A0B5A1E0023
(1617469253.087076) can0 401#268D000000000000
(1617469253.088625) can0 300#035A0B5A1E0023
(1617469253.093587) can0 454#035A0B5A1E0023
(1617469253.126891) can0 201#0000000062
(1617469253.137018) can0 400#01000C00
(1617469253.138720) can0 300#035A0B5A1E0023
(1617469253.139324) can0 203#0000000000000400
(1617469253.143577) can0 454#035A0B5A1E0023
(1617469253.187055) can0 401#268D000000000000
(1617469253.189028) can0 300#035A0B5A1E0023
(1617469253.193577) can0 454#035A0B5A1E0023
(1617469253.229217) can0 201#0000000062
(1617469253.237121) can0 400#01000C00
(1617469253.238838) can0 300#035A0B5A1E0023
(1617469253.241342) can0 203#0000000000000400
(1617469253.243584) can0 454#035A0B5A1E0023
(1617469253.243865) can0 450#1001
(1617469253.253335) can0 204#0000000000000000
(1617469253.265316) can0 202#DA0D00009E240500
(1617469253.287527) can0 451#10010000235A64
(1617469253.287824) can0 450#0601
(1617469253.290947) can0 401#268D000000000000
(1617469253.292494) can0 300#035A0B5A1E0023
(1617469253.293578) can0 454#035A0B5A1E0023
(1617469253.329236) can0 201#0000000062
(1617469253.335379) can0 451#060100001E
(1617469253.335690) can0 450#0801
(1617469253.338595) can0 400#01000C00
(1617469253.340403) can0 300#035A0B5A1E0023
(1617469253.341333) can0 203#0000000000000400
(1617469253.343575) can0 454#035A0B5A1E0023
(1617469253.384595) can0 451#0801000028
(1617469253.384896) can0 450#0901
(1617469253.388180) can0 401#258D000000000000
(1617469253.389745) can0 300#035A0B5A1E0023
(1617469253.393577) can0 454#035A0B5A1E0023
(1617469253.429210) can0 201#0000000062
(1617469253.435680) can0 451#090100005F
(1617469253.438606) can0 400#01000C00
(1617469253.440824) can0 300#035A0B5A1E0023
(1617469253.441353) can0 203#0000000000000400
(1617469253.443574) can0 454#035A0B5A1E0023
(1617469253.487090) can0 401#258D000000000000
(1617469253.489424) can0 300#035A0B5A1E0023
(1617469253.493573) can0 454#035A0B5A1E0023
(1617469253.529223) can0 201#0000000062
(1617469253.538216) can0 400#01000C00
(1617469253.540028) can0 300#035A0B5A1E0023
(1617469253.541340) can0 203#0000000000000400
(1617469253.543573) can0 454#035A0B5A1E0023
(1617469253.587746) can0 401#258D000000000000
(1617469253.589309) can0 300#035A0B5A1E0023
(1617469253.593573) can0 454#035A0B5A1E0023
(1617469253.629219) can0 201#0000000062
(1617469253.636649) can0 400#01000C00
(1617469253.638767) can0 300#035A0B5A1E0023
(1617469253.641351) can0 203#0000000000000400
(1617469253.643572) can0 454#035A0B5A1E0023
(1617469253.687132) can0 401#258D000000000000
(1617469253.688690) can0 300#035A0B5A1E0023
(1617469253.693572) can0 454#035A0B5A1E0023
(1617469253.729228) can0 201#0000000062
(1617469253.737063) can0 400#01000C00
(1617469253.738772) can0 300#035A0B5A1E0023
(1617469253.741345) can0 203#0000000000000400
(1617469253.743570) can0 454#035A0B5A1E0023
(1617469253.788309) can0 401#268D000000000000
(1617469253.790496) can0 300#035A0B5A1E0023
(1617469253.793571) can0 454#035A0B5A1E0023
(1617469253.793851) can0 450#1001
(1617469253.829220) can0 201#0000000062
(1617469253.835573) can0 451#10010000235A64
(1617469253.835876) can0 450#0601
(1617469253.838828) can0 400#01000C00
(1617469253.840539) can0 300#035A0B5A1E0023
(1617469253.841357) can0 203#0000000000000400
(1617469253.843571) can0 454#035A0B5A1E0023
(1617469253.885858) can0 451#060100001E
(1617469253.886166) can0 450#0801
(1617469253.889021) can0 403#590000009CDC0500
(1617469253.893571) can0 454#035A0B5A1E0023
(1617469253.929232) can0 201#0000000062
(1617469253.935414) can0 451#0801000028
(1617469253.935722) can0 450#0901
(1617469253.938735) can0 400#01000C00
(1617469253.940441) can0 300#035A0B5A1E0023
(1617469253.941345) can0 203#0000000000000400
(1617469253.943571) can0 454#035A0B5A1E0023
(1617469253.985341) can0 451#090100005F
(1617469253.988932) can0 401#268D000000000000
(1617469253.990497) can0 300#035A0B5A1E0023
(1617469253.993566) can0 454#035A0B5A1E0023
(1617469254.029230) can0 201#0000000062
(1617469254.037010) can0 400#01000C00
(1617469254.038808) can0 300#035A0B5A1E0023
(1617469254.041364) can0 203#0000000000000400
(1617469254.043577) can0 454#035A0B5A1E0023
(1617469254.088002) can0 401#268D000000000000
(1617469254.089846) can0 300#035A0B5A1E0023
(1617469254.093571) can0 454#035A0B5A1E0023
(1617469254.129238) can0 201#0000000062
(1617469254.136819) can0 400#01000C00
(1617469254.138637) can0 300#035A0B5A1E0023
(1617469254.141409) can0 203#0000000000000400
(1617469254.143568) can0 454#035A0B5A1E0023
(1617469254.187606) can0 401#268D000000000000
(1617469254.189164) can0 300#035A0B5A1E0023
(1617469254.193568) can0 454#035A0B5A1E0023
(1617469254.229285) can0 201#0000000062
(1617469254.236810) can0 400#01000C00
(1617469254.239062) can0 300#035A0B5A1E0023
(1617469254.241417) can0 203#0000000000000400
(1617469254.243573) can0 454#035A0B5A1E0023
(1617469254.253388) can0 204#0000000000000000
(1617469254.265391) can0 202#DA0D00009E240500
(1617469254.277365) can0 666#5207010152016226
(1617469254.287512) can0 401#268D000000000000
(1617469254.289087) can0 300#035A0B5A1E0023
(1617469254.289544) can0 665#0000000053175300
(1617469254.293566) can0 454#035A0B5A1E0023
(1617469254.301400) can0 200#1E0028CA01000200
(1617469254.329294) can0 201#0000000062
(1617469254.338152) can0 400#01000C00
(1617469254.339961) can0 300#035A0B5A1E0023
(1617469254.341409) can0 203#0000000000000400
(1617469254.343567) can0 454#035A0B5A1E0023
(1617469254.343847) can0 450#1001
(1617469254.385844) can0 451#10010000235A64
(1617469254.386142) can0 450#0601
(1617469254.389235) can0 401#268D000000000000
(1617469254.390802) can0 300#035A0B5A1E0023
(1617469254.393568) can0 454#035A0B5A1E0023
(1617469254.429288) can0 201#0000000062
(1617469254.435334) can0 451#060100001E
(1617469254.435644) can0 450#0801
(1617469254.438775) can0 400#01000C00
(1617469254.440561) can0 300#035A0B5A1E0023
(1617469254.441418) can0 203#0000000000000400
(1617469254.443566) can0 454#035A0B5A1E0023
(1617469254.486014) can0 451#0801000028
(1617469254.486315) can0 450#0901
(1617469254.489198) can0 401#268D000000000000
(1617469254.491158) can0 300#035A0B5A1E0023
(1617469254.493563) can0 454#035A0B5A1E0023
(1617469254.529295) can0 201#0000000062
(1617469254.535634) can0 451#090100005F
(1617469254.539500) can0 400#01000C00
(1617469254.541206) can0 300#035A0B5A1E0023
(1617469254.541690) can0 203#0000000000000400
(1617469254.543561) can0 454#035A0B5A1E0023
(1617469254.588859) can0 401#268D000000000000
(1617469254.590412) can0 300#035A0B5A1E0023
(1617469254.593560) can0 454#035A0B5A1E0023
(1617469254.629291) can0 201#0000000062
(1617469254.637643) can0 400#01000C00
(1617469254.639441) can0 300#035A0B5A1E0023
(1617469254.641425) can0 203#0000000000000400
(1617469254.643564) can0 454#035A0B5A1E0023
(1617469254.687146) can0 401#268D000000000000
(1617469254.689160) can0 300#035A0B5A1E0023
(1617469254.693561) can0 454#035A0B5A1E0023
(1617469254.729302) can0 201#0000000062
(1617469254.736939) can0 400#01000C00
(1617469254.738774) can0 300#035A0B5A1E0023
(1617469254.741433) can0 203#0000000000000400
(1617469254.743561) can0 454#035A0B5A1E0023
(1617469254.786807) can0 401#258D000000000000
(1617469254.788417) can0 300#035A0B5A1E0023
(1617469254.793562) can0 454#035A0B5A1E0023
(1617469254.829295) can0 201#0000000062
(1617469254.838217) can0 400#01000C00
(1617469254.840565) can0 300#035A0B5A1E0023
(1617469254.841430) can0 203#0000000000000400
(1617469254.843563) can0 454#035A0B5A1E0023
(1617469254.887561) can0 401#258D000000000000
(1617469254.889175) can0 300#035A0B5A1E0023
(1617469254.893556) can0 454#035A0B5A1E0023
(1617469254.893834) can0 450#1001
(1617469254.929307) can0 201#3C00000062
(1617469254.936004) can0 451#10010000235A64
(1617469254.936296) can0 450#0601
(1617469254.939062) can0 400#01000C00
(1617469254.941139) can0 300#035A0B5A1E0023
(1617469254.941655) can0 203#0000000000000400
(1617469254.943561) can0 454#035A0B5A1E0023
(1617469254.985697) can0 451#060100001E
(1617469254.986002) can0 450#0801
(1617469254.989099) can0 401#258D000000000000
(1617469254.990630) can0 300#035A0B5A1E0023
(1617469254.993558) can0 454#035A0B5A1E0023
(1617469255.029298) can0 201#3C00000062
(1617469255.035342) can0 451#0801000028
(1617469255.035649) can0 450#0901
(1617469255.038857) can0 400#01000C00
(1617469255.040560) can0 300#035A0B5A1E0023
(1617469255.041426) can0 203#0000000000000400
(1617469255.043566) can0 454#035A0B5A1E0023
(1617469255.085955) can0 451#090100005F
(1617469255.089109) can0 401#258D000000000000
(1617469255.091336) can0 300#035A0B5A1E0023
(1617469255.093554) can0 454#035A0B5A1E0023
(1617469255.129307) can0 201#3C00000062
(1617469255.137362) can0 400#01000C00
(1617469255.139427) can0 300#035A0B5A1E0023
(1617469255.141421) can0 203#0000000000000400
(1617469255.143571) can0 454#035A0B5A1E0023
(1617469255.187202) can0 401#258D000000000000
(1617469255.188826) can0 300#035A0B5A1E0023
(1617469255.193559) can0 454#035A0B5A1E0023
(1617469255.230332) can0 201#3C00300762
(1617469255.237434) can0 400#01000C00
(1617469255.239207) can0 300#035A0B5A1E0023
(1617469255.242791) can0 203#0000000000000400
(1617469255.243574) can0 454#035A0B5A1E0023
(1617469255.255082) can0 204#0000000000000000
(1617469255.267371) can0 202#DA0D0000A0240500
(1617469255.287322) can0 401#238D00004F000000
(1617469255.289352) can0 300#035A0B5A1E0023
(1617469255.293552) can0 454#035A0B5A1E0023
(1617469255.332856) can0 201#3C004C0E62
(1617469255.339153) can0 400#01000C00
(1617469255.340847) can0 300#035A0B5A1E0023
(1617469255.343553) can0 454#035A0B5A1E0023
(1617469255.345261) can0 203#6D00A40903000400
(1617469255.390914) can0 402#1E00000028CA0100
(1617469255.393554) can0 454#035A0B5A1E0023
(1617469255.435355) can0 201#3C00281462
(1617469255.439901) can0 400#01002C00
(1617469255.441597) can0 300#035A0B5A1E0023
(1617469255.443550) can0 454#035A0B5A1E0023
(1617469255.443830) can0 450#1001
(1617469255.447757) can0 203#D900909A0E000400
(1617469255.487753) can0 451#10010000235A64
(1617469255.488054) can0 450#0601
(1617469255.491567) can0 401#238D00001C030000
(1617469255.493408) can0 300#035A0B5A1E0023
(1617469255.493836) can0 454#035A0B5A1E0023
(1617469255.537858) can0 201#3C004A1562
(1617469255.538222) can0 451#060100001E
(1617469255.538536) can0 450#0801
(1617469255.542053) can0 400#01002C00
(1617469255.543550) can0 454#035A0B5A1E0023
(1617469255.543991) can0 300#035A0B5A1E0023
(1617469255.550258) can0 203#0601C04F15000400
(1617469255.587557) can0 451#0801000028
(1617469255.587865) can0 450#0901
(1617469255.592173) can0 401#238D00008F040000
(1617469255.593551) can0 454#035A0B5A1E0023
(1617469255.593988) can0 300#035A0B5A1E0023
(1617469255.639240) can0 451#090100005F
(1617469255.640352) can0 201#3C008C0F62
(1617469255.643165) can0 400#01002C00
(1617469255.643594) can0 454#035A0B5A1E0023
(1617469255.644876) can0 300#035A0B5A1E0023
(1617469255.652774) can0 203#6D01407517000400
(1617469255.691019) can0 401#908C0000FB050000
(1617469255.692582) can0 300#035A0B5A1E0023
(1617469255.693550) can0 454#035A0B5A1E0023
(1617469255.739218) can0 400#01002C00
(1617469255.740931) can0 300#035A0B5A1E0023
(1617469255.742869) can0 201#3C00A20862
(1617469255.743549) can0 454#035A0B5A1E0023
(1617469255.755282) can0 203#CA0154AA0A000400
(1617469255.790140) can0 401#908C00005F070000
(1617469255.791708) can0 300#035A0B5A1E0023
(1617469255.793548) can0 454#035A0B5A1E0023
(1617469255.840008) can0 400#01002C00
(1617469255.842473) can0 300#035A0B5A1E0023
(1617469255.843551) can0 454#035A0B5A1E0023
(1617469255.845359) can0 201#3C00780062
(1617469255.857797) can0 203#F10120D602000400
(1617469255.891503) can0 401#908C0000F8070000
(1617469255.893053) can0 300#035A0B5A1E0023
(1617469255.893588) can0 454#035A0B5A1E0023
(1617469255.939910) can0 400#01002C00
(1617469255.941623) can0 300#035A0B5A1E0023
(1617469255.943544) can0 454#035A0B5A1E0023
(1617469255.947870) can0 201#3C000A0062
(1617469255.960317) can0 203#3402000000000400
(1617469255.989890) can0 401#908C000025070000
(1617469255.991854) can0 300#035A0B5A1E0023
(1617469255.993544) can0 454#035A0B5A1E0023
(1617469255.993824) can0 450#1001
(1617469256.037847) can0 451#10010000235A64
(1617469256.038144) can0 450#0601
(1617469256.041526) can0 400#01002C00
(1617469256.043227) can0 300#035A0B5A1E0023
(1617469256.043661) can0 454#035A0B5A1E0023
(1617469256.050368) can0 201#3C000A0062
(1617469256.062817) can0 203#5102000000000400
(1617469256.087553) can0 451#060100001E
(1617469256.087862) can0 450#0801
(1617469256.091253) can0 401#908C0000CE050000
(1617469256.093540) can0 454#035A0B5A1E0023
(1617469256.093979) can0 300#035A0B5A1E0023
(1617469256.139524) can0 451#0801000028
(1617469256.139823) can0 450#0901
(1617469256.143543) can0 454#035A0B5A1E0023
(1617469256.143890) can0 400#01002C00
(1617469256.145327) can0 300#035A0B5A1E0023
(1617469256.152121) can0 201#3C00000062
(1617469256.164254) can0 203#0000000000000400
(1617469256.187198) can0 451#090100005F
(1617469256.190957) can0 401#6A8C000000000000
(1617469256.192505) can0 300#035A0B5A1E0023
(1617469256.193542) can0 454#035A0B5A1E0023
(1617469256.237425) can0 400#01000C00
(1617469256.239144) can0 300#035A0B5A1E0023
(1617469256.243542) can0 454#035A0B5A1E0023
(1617469256.252122) can0 201#3C00000062
(1617469256.264275) can0 203#0000000000000400
(1617469256.276254) can0 204#0000000000000000
(1617469256.287972) can0 401#6A8C000000000000
(1617469256.288447) can0 202#DA0D0000A0240500
(1617469256.289521) can0 300#035A0B5A1E0023
(1617469256.293541) can0 454#035A0B5A1E0023
(1617469256.337485) can0 400#01000C00
(1617469256.339672) can0 300#035A0B5A1E0023
(1617469256.343542) can0 454#035A0B5A1E0023
(1617469256.352130) can0 201#3002000062
(1617469256.364255) can0 203#0000000000000400
(1617469256.388139) can0 401#6A8C000000000000
(1617469256.389696) can0 300#035A0B5A1E0023
(1617469256.393541) can0 454#035A0B5A1E0023
(1617469256.439332) can0 400#01000C00
(1617469256.441324) can0 300#035A0B5A1E0023
(1617469256.443545) can0 454#035A0B5A1E0023
(1617469256.452130) can0 201#3002000062
(1617469256.464264) can0 203#0000000000000400
(1617469256.487648) can0 401#6A8C000000000000
(1617469256.489477) can0 300#035A0B5A1E0023
(1617469256.493541) can0 454#035A0B5A1E0023
(1617469256.537560) can0 400#01000C00
(1617469256.539299) can0 300#035A0B5A1E0023
(1617469256.543538) can0 454#035A0B5A1E0023
(1617469256.543819) can0 450#1001
(1617469256.552192) can0 201#3002000062
(1617469256.564305) can0 203#0000000000000400
(1617469256.586134) can0 451#10010000235A64
(1617469256.586437) can0 450#0601
(1617469256.589527) can0 401#218D000000000000
(1617469256.591490) can0 300#035A0B5A1E0023
(1617469256.593537) can0 454#035A0B5A1E0023
(1617469256.635163) can0 451#060100001E
(1617469256.635468) can0 450#0801
(1617469256.638484) can0 400#01000C00
(1617469256.641008) can0 300#035A0B5A1E0023
(1617469256.643541) can0 454#035A0B5A1E0023
(1617469256.652184) can0 201#3002000062
(1617469256.664317) can0 203#0000000000000400
(1617469256.687401) can0 451#0801000028
(1617469256.687705) can0 450#0901
(1617469256.690882) can0 401#218D000000000000
(1617469256.692436) can0 300#035A0B5A1E0023
(1617469256.693536) can0 454#035A0B5A1E0023
(1617469256.736564) can0 451#090100005F
(1617469256.739886) can0 400#01000C00
(1617469256.741878) can0 300#035A0B5A1E0023
(1617469256.743534) can0 454#035A0B5A1E0023
(1617469256.752343) can0 201#3002940C62
(1617469256.764778) can0 203#E300000000000400
(1617469256.787865) can0 401#218D000000000000
(1617469256.789820) can0 300#035A0B5A1E0023
(1617469256.793537) can0 454#035A0B5A1E0023
(1617469256.838566) can0 400#01000C00
(1617469256.840318) can0 300#035A0B5A1E0023
(1617469256.843542) can0 454#035A0B5A1E0023
(1617469256.854829) can0 201#3002200862
(1617469256.867271) can0 203#FE01006612000400
(1617469256.889171) can0 403#590000009CDC0500
(1617469256.893536) can0 454#035A0B5A1E0023
(1617469256.940580) can0 400#01002C00
(1617469256.942271) can0 300#035A0B5A1E0023
(1617469256.943534) can0 454#035A0B5A1E0023
(1617469256.957342) can0 201#3002140A62
(1617469256.969749) can0 203#4D02349D19000400
(1617469256.990155) can0 401#218D000069020000
(1617469256.991733) can0 300#035A0B5A1E0023
(1617469256.993532) can0 454#035A0B5A1E0023
(1617469257.040406) can0 400#01002C00
(1617469257.042498) can0 300#035A0B5A1E0023
(1617469257.043534) can0 454#035A0B5A1E0023
(1617469257.059841) can0 201#3002AA0F62
(1617469257.072262) can0 203#E10220C42D000400
(1617469257.089393) can0 401#F48C0000BE040000
(1617469257.090955) can0 300#035A0B5A1E0023
(1617469257.093532) can0 454#035A0B5A1E0023
(1617469257.093813) can0 450#1001
(1617469257.138316) can0 451#10010000235A64
(1617469257.138619) can0 450#0601
(1617469257.141887) can0 400#01002C00
(1617469257.143527) can0 454#035A0B5A1E0023
(1617469257.144338) can0 300#035A0B5A1E0023
(1617469257.162348) can0 201#30028C0F62
(1617469257.174772) can0 203#2403B89233000400
(1617469257.189180) can0 451#060100001E
(1617469257.189485) can0 450#0801
(1617469257.193533) can0 454#035A0B5A1E0023
(1617469257.194013) can0 401#F48C000037070000
(1617469257.195347) can0 300#035A0B5A1E0023
(1617469257.238092) can0 451#0801000028
(1617469257.238395) can0 450#0901
(1617469257.241910) can0 400#01002C00
(1617469257.243537) can0 454#035A0B5A1E0023
(1617469257.243976) can0 300#035A0B5A1E0023
(1617469257.264177) can0 201#8E034A0B62
(1617469257.276621) can0 203#8903748D2B000400
(1617469257.287592) can0 451#090100005F
(1617469257.288925) can0 204#0000000000000000
(1617469257.291351) can0 401#F48C00007B090000
(1617469257.293433) can0 300#035A0B5A1E0023
(1617469257.293866) can0 454#035A0B5A1E0023
(1617469257.301216) can0 202#DA0D0000A4240500
(1617469257.313484) can0 666#5207010152016226
(1617469257.325806) can0 665#0000000053175300
(1617469257.338114) can0 200#1E0028CA01000000
(1617469257.340166) can0 400#01002C00
(1617469257.342149) can0 300#035A0B5A1E0023
(1617469257.343533) can0 454#035A0B5A1E0023
(1617469257.366685) can0 201#8E03080762
(1617469257.379120) can0 203#D503004E17000400
(1617469257.390303) can0 401#F48C00005F0B0000
(1617469257.391876) can0 300#035A0B5A1E0023
(1617469257.393524) can0 454#035A0B5A1E0023
(1617469257.439742) can0 400#01002C00
(1617469257.441475) can0 300#035A0B5A1E0023
(1617469257.443529) can0 454#035A0B5A1E0023
(1617469257.469195) can0 201#8E03120262
(1617469257.481632) can0 203#F603C0E20A000400
(1617469257.491097) can0 401#F48C0000AF0C0000
(1617469257.492781) can0 300#035A0B5A1E0023
(1617469257.493531) can0 454#035A0B5A1E0023
(1617469257.540366) can0 400#01002C00
(1617469257.542055) can0 300#035A0B5A1E0023
(1617469257.543527) can0 454#035A0B5A1E0023
(1617469257.571695) can0 201#8E03020362
(1617469257.584116) can0 203#380450E710000400
(1617469257.589204) can0 401#AB8B0000AE0C0000
(1617469257.590783) can0 300#035A0B5A1E0023
(1617469257.593528) can0 454#035A0B5A1E0023
(1617469257.640317) can0 400#01002C00
(1617469257.642464) can0 300#035A0B5A1E0023
(1617469257.643532) can0 454#035A0B5A1E0023
(1617469257.643813) can0 450#1001
(1617469257.674204) can0 201#8E03EC0962
(1617469257.686642) can0 203#6304407F22000400
(1617469257.687750) can0 451#10010000235A64
(1617469257.688055) can0 450#0601
(1617469257.692308) can0 401#AB8B0000240D0000
(1617469257.693524) can0 454#035A0B5A1E0023
(1617469257.693964) can0 300#035A0B5A1E0023
(1617469257.739365) can0 451#060100001E
(1617469257.739671) can0 450#0801
(1617469257.743230) can0 400#01002C00
(1617469257.743662) can0 454#035A0B5A1E0023
(1617469257.744924) can0 300#035A0B5A1E0023
(1617469257.776690) can0 201#8E03AC1262
(1617469257.788310) can0 451#0801000028
(1617469257.788602) can0 450#0901
(1617469257.789126) can0 203#A404F01E58000400
(1617469257.792443) can0 401#AB8B0000F80D0000
(1617469257.793523) can0 454#035A0B5A1E0023
(1617469257.794035) can0 300#035A0B5A1E0023
(1617469257.837809) can0 451#090100005F
(1617469257.841774) can0 400#01002C00
(1617469257.843506) can0 300#035A0B5A1E0023
(1617469257.843937) can0 454#035A0B5A1E0023
(1617469257.879183) can0 201#8E036E1462
(1617469257.889759) can0 401#AB8B0000F30E0000
(1617469257.891321) can0 300#035A0B5A1E0023
(1617469257.891794) can0 203#C70490EA66000400
(1617469257.893523) can0 454#035A0B5A1E0023
(1617469257.940101) can0 400#01002C00
(1617469257.942597) can0 300#035A0B5A1E0023
(1617469257.943524) can0 454#035A0B5A1E0023
(1617469257.981707) can0 201#8E03761162
(1617469257.991562) can0 401#628B0000F90F0000
(1617469257.993253) can0 300#035A0B5A1E0023
(1617469257.993683) can0 454#035A0B5A1E0023
(1617469257.994157) can0 203#F8049C8F5B000400
(1617469258.039359) can0 400#01002C00
(1617469258.041145) can0 300#035A0B5A1E0023
(1617469258.043526) can0 454#035A0B5A1E0023
(1617469258.083664) can0 201#1A04080C62
(1617469258.090408) can0 401#628B0000EC100000
(1617469258.092511) can0 300#035A0B5A1E0023
(1617469258.093522) can0 454#035A0B5A1E0023
(1617469258.096083) can0 203#0B059CAE4E000400
(1617469258.140053) can0 400#01002C00
(1617469258.141804) can0 300#035A0B5A1E0023
(1617469258.143521) can0 454#035A0B5A1E0023
(1617469258.186171) can0 201#1A04960562
(1617469258.189864) can0 401#628B0000B1110000
(1617469258.191538) can0 300#035A0B5A1E0023
(1617469258.193528) can0 454#035A0B5A1E0023
(1617469258.193797) can0 450#1001
(1617469258.198570) can0 203#350528AD20000400
(1617469258.239336) can0 451#10010000235A64
(1617469258.239634) can0 450#0601
(1617469258.243520) can0 454#035A0B5A1E0023
(1617469258.243866) can0 400#01002C00
(1617469258.245291) can0 300#035A0B5A1E0023
(1617469258.288068) can0 451#060100001E
(1617469258.288379) can0 450#0801
(1617469258.288748) can0 201#1A047C0162
(1617469258.292194) can0 401#628B000059120000
(1617469258.293534) can0 454#035A0B5A1E0023
(1617469258.293963) can0 300#035A0B5A1E0023
(1617469258.301084) can0 203#6805EC4507000400
(1617469258.313344) can0 204#0000000000000000
(1617469258.325636) can0 202#DA0D0000A7240500
(1617469258.337844) can0 451#0801000028
(1617469258.338147) can0 450#0901
(1617469258.341533) can0 400#01002C00
(1617469258.343518) can0 454#035A0B5A1E0023
(1617469258.343960) can0 300#035A0B5A1E0023
(1617469258.388108) can0 451#090100005F
(1617469258.391076) can0 201#1A042E0462
(1617469258.392256) can0 402#1E000000E0C90100
(1617469258.393517) can0 454#035A0B5A1E0023
(1617469258.403492) can0 203#8A05640E14000400
(1617469258.440211) can0 400#01002C00
(1617469258.441969) can0 300#035A0B5A1E0023
(1617469258.443526) can0 454#035A0B5A1E0023
(1617469258.490087) can0 401#F08A0000AF130000
(1617469258.491767) can0 300#035A0B5A1E0023
(1617469258.493514) can0 454#035A0B5A1E0023
(1617469258.493881) can0 201#1A04FC0862
(1617469258.506002) can0 203#BC05608136000400
(1617469258.541631) can0 400#01002C00
(1617469258.543321) can0 300#035A0B5A1E0023
(1617469258.543755) can0 454#035A0B5A1E0023
(1617469258.590052) can0 401#F08A000039140000
(1617469258.591728) can0 300#035A0B5A1E0023
(1617469258.593516) can0 454#035A0B5A1E0023
(1617469258.596080) can0 201#1A045E0B62
(1617469258.608492) can0 203#C905409D43000400
(1617469258.639922) can0 400#01002C00
(1617469258.641709) can0 300#035A0B5A1E0023
(1617469258.643518) can0 454#035A0B5A1E0023
(1617469258.690041) can0 401#F08A0000A9140000
(1617469258.692110) can0 300#035A0B5A1E0023
(1617469258.693514) can0 454#035A0B5A1E0023
(1617469258.698573) can0 201#C404CE0962
(1617469258.711006) can0 203#EE0558D93C000400
(1617469258.740611) can0 400#01002C00
(1617469258.742371) can0 300#035A0B5A1E0023
(1617469258.743517) can0 454#035A0B5A1E0023
(1617469258.743794) can0 450#1001
(1617469258.789389) can0 451#10010000235A64
(1617469258.789688) can0 450#0601
(1617469258.793446) can0 401#F08A000005150000
(1617469258.793891) can0 454#035A0B5A1E0023
(1617469258.795005) can0 300#035A0B5A1E0023
(1617469258.801084) can0 201#C404AE0662
(1617469258.813503) can0 203#FF05E0BE33000400
(1617469258.838492) can0 451#060100001E
(1617469258.838800) can0 450#0801
(1617469258.842465) can0 400#01002C00
(1617469258.843523) can0 454#035A0B5A1E0023
(1617469258.844172) can0 300#035A0B5A1E0023
(1617469258.887748) can0 451#0801000028
(1617469258.888050) can0 450#0901
(1617469258.891916) can0 401#F08A000053150000
(1617469258.893511) can0 454#035A0B5A1E0023
(1617469258.893964) can0 300#035A0B5A1E0023
(1617469258.903584) can0 201#C404020362
(1617469258.916009) can0 203#1F06F06E13000480
(1617469258.938212) can0 451#090100005F
(1617469258.941912) can0 400#01002C00
(1617469258.943513) can0 454#035A0B5A1E0023
(1617469258.944014) can0 300#035A0B5A1E0023
(1617469258.989467) can0 401#978A0000D6140000
(1617469258.991930) can0 300#035A0B5A1E0023
(1617469258.993511) can0 454#035A0B5A1E0023
(1617469259.006107) can0 201#C404360162
(1617469259.018504) can0 203#3706C0FA05000480
(1617469259.041672) can0 400#01002C00
(1617469259.043428) can0 300#035A0B5A1E0023
(1617469259.043886) can0 454#035A0B5A1E0023
(1617469259.089449) can0 401#978A000099130000
(1617469259.091128) can0 300#035A0B5A1E0023
(1617469259.093507) can0 454#035A0B5A1E0023
(1617469259.108601) can0 201#C404860162
(1617469259.121005) can0 203#4806A83907000480
(1617469259.140145) can0 400#01002C00
(1617469259.142329) can0 300#035A0B5A1E0023
(1617469259.143511) can0 454#035A0B5A1E0023
(1617469259.190168) can0 401#978A000049120000
(1617469259.191824) can0 300#035A0B5A1E0023
(1617469259.193507) can0 454#035A0B5A1E0023
(1617469259.211106) can0 201#C404480362
(1617469259.223501) can0 203#6906847014000480
(1617469259.239958) can0 400#01002C00
(1617469259.241694) can0 300#035A0B5A1E0023
(1617469259.243511) can0 454#035A0B5A1E0023
(1617469259.292027) can0 401#978A000046110000
(1617469259.293509) can0 454#035A0B5A1E0023
(1617469259.293949) can0 300#035A0B5A1E0023
(1617469259.294213) can0 450#1001
(1617469259.313605) can0 201#C4041A0462
(1617469259.326010) can0 203#8306E0A012000480
(1617469259.338325) can0 204#0000000000000000
(1617469259.338758) can0 451#10010000235A64
(1617469259.339084) can0 450#0601
(1617469259.342233) can0 400#01002C00
(1617469259.343509) can0 454#035A0B5A1E0023
(1617469259.343958) can0 300#035A0B5A1E0023
(1617469259.350603) can0 202#DA0E0000A9240500
(1617469259.387773) can0 451#060100001E
(1617469259.388079) can0 450#0801
(1617469259.391720) can0 401#978A000066100000
(1617469259.393507) can0 454#035A0B5A1E0023
(1617469259.393947) can0 300#035A0B5A1E0023
(1617469259.416109) can0 201#1405560462
(1617469259.428501) can0 203#C306A0831D000480
(1617469259.438518) can0 451#0801000028
(1617469259.438823) can0 450#0901
(1617469259.442414) can0 400#01002C00
(1617469259.443508) can0 454#035A0B5A1E0023
(1617469259.444122) can0 300#035A0B5A1E0023
(1617469259.487004) can0 451#090100005F
(1617469259.491252) can0 401#318B0000CB0F0000
(1617469259.492819) can0 300#035A0B5A1E0023
(1617469259.493504) can0 454#035A0B5A1E0023
(1617469259.518606) can0 201#14056C0262
(1617469259.531010) can0 203#DF0610CA1B000480
(1617469259.540300) can0 400#01002C00
(1617469259.542044) can0 300#035A0B5A1E0023
(1617469259.543504) can0 454#035A0B5A1E0023
(1617469259.591490) can0 401#318B0000DE0E0000
(1617469259.593055) can0 300#035A0B5A1E0023
(1617469259.593548) can0 454#035A0B5A1E0023
(1617469259.621111) can0 201#14050E0162
(1617469259.633506) can0 203#0C0730C609000480
(1617469259.640217) can0 400#01002C00
(1617469259.641961) can0 300#035A0B5A1E0023
(1617469259.643510) can0 454#035A0B5A1E0023
(1617469259.690076) can0 401#318B0000FA0C0000
(1617469259.691702) can0 300#035A0B5A1E0023
(1617469259.693503) can0 454#035A0B5A1E0023
(1617469259.723610) can0 201#1405C60262
(1617469259.736023) can0 203#1B07D82F07000480
(1617469259.740223) can0 400#01002C00
(1617469259.742411) can0 300#035A0B5A1E0023
(1617469259.743500) can0 454#035A0B5A1E0023
(1617469259.790801) can0 401#318B00003D0B0000
(1617469259.792368) can0 300#035A0B5A1E0023
(1617469259.793502) can0 454#035A0B5A1E0023
(1617469259.826120) can0 201#14058C0562
(1617469259.838513) can0 203#3E07981525000480
(1617469259.841532) can0 400#01002C00
(1617469259.843503) can0 454#035A0B5A1E0023
(1617469259.843943) can0 300#035A0B5A1E0023
(1617469259.844206) can0 450#1001
(1617469259.888680) can0 451#10010000235A64
(1617469259.888980) can0 450#0601
(1617469259.892642) can0 403#590000009CDC0500
(1617469259.893500) can0 454#035A0B5A1E0023
(1617469259.928611) can0 201#1405980862
(1617469259.938418) can0 451#060100001E
(1617469259.938728) can0 450#0801
(1617469259.941017) can0 203#6307743E42000480
(1617469259.942416) can0 400#01002C00
(1617469259.943500) can0 454#035A0B5A1E0023
(1617469259.944108) can0 300#035A0B5A1E0023
(1617469259.987123) can0 451#0801000028
(1617469259.987427) can0 450#0901
(1617469259.991052) can0 401#DA8B0000AC0B0000
(1617469259.992669) can0 300#035A0B5A1E0023
(1617469259.993497) can0 454#035A0B5A1E0023
(1617469260.031134) can0 201#3205000562
(1617469260.038607) can0 451#090100005F
(1617469260.043004) can0 400#01002C00
(1617469260.043518) can0 203#6E07A82E2A000480
(1617469260.043953) can0 454#035A0B5A1E0023
(1617469260.044696) can0 300#035A0B5A1E0023
(1617469260.091926) can0 401#DA8B0000FA0C0000
(1617469260.093499) can0 454#035A0B5A1E0023
(1617469260.093941) can0 300#035A0B5A1E0023
(1617469260.133623) can0 201#3205840362
(1617469260.140310) can0 400#01002C00
(1617469260.142014) can0 300#035A0B5A1E0023
(1617469260.143501) can0 454#035A0B5A1E0023
(1617469260.146007) can0 203#890700C219000480
(1617469260.190385) can0 401#DA8B0000D40D0000
(1617469260.192392) can0 300#035A0B5A1E0023
(1617469260.193499) can0 454#035A0B5A1E0023
(1617469260.236120) can0 201#3205400162
(1617469260.240231) can0 400#01002C00
(1617469260.241932) can0 300#035A0B5A1E0023
(1617469260.243505) can0 454#035A0B5A1E0023
(1617469260.248520) can0 203#9907006D0A000480
(1617469260.290210) can0 401#DA8B0000600D0000
(1617469260.291772) can0 300#035A0B5A1E0023
(1617469260.293493) can0 454#035A0B5A1E0023
(1617469260.338616) can0 201#3205FE0162
(1617469260.342086) can0 400#01002C00
(1617469260.343497) can0 454#035A0B5A1E0023
(1617469260.343938) can0 300#035A0B5A1E0023
(1617469260.351038) can0 203#E10784C210000480
(1617469260.363346) can0 204#0000000000000000
(1617469260.375628) can0 202#DA0E0000AE240500
(1617469260.387903) can0 666#5207010152016226
(1617469260.391263) can0 401#7C8B0000750C0000
(1617469260.392871) can0 300#035A0B5A1E0023
(1617469260.393495) can0 454#035A0B5A1E0023
(1617469260.393777) can0 450#1001
(1617469260.400229) can0 665#0000000053175300
(1617469260.412542) can0 200#1E00E0C901000100
(1617469260.437409) can0 451#10010000235A64
(1617469260.437711) can0 450#0601
(1617469260.440967) can0 400#01002C00
(1617469260.441317) can0 201#3205EC0462
(1617469260.442661) can0 300#035A0B5A1E0023
(1617469260.443503) can0 454#035A0B5A1E0023
(1617469260.453526) can0 203#090880101A000480
(1617469260.488614) can0 451#060100001E
(1617469260.488919) can0 450#0801
(1617469260.492758) can0 401#7C8B0000350C0000
(1617469260.493492) can0 454#035A0B5A1E0023
(1617469260.494387) can0 300#035A0B5A1E0023
(1617469260.537924) can0 451#0801000028
(1617469260.538229) can0 450#0901
(1617469260.541855) can0 400#01002C00
(1617469260.543492) can0 454#035A0B5A1E0023
(1617469260.543850) can0 201#3205B00462
(1617469260.544291) can0 300#035A0B5A1E0023
(1617469260.556024) can0 203#430844E927000480
(1617469260.587925) can0 451#090100005F
(1617469260.591758) can0 401#7C8B0000800C0000
(1617469260.593492) can0 454#035A0B5A1E0023
(1617469260.593958) can0 300#035A0B5A1E0023
(1617469260.641112) can0 400#01002C00
(1617469260.642829) can0 300#035A0B5A1E0023
(1617469260.643496) can0 454#035A0B5A1E0023
(1617469260.646113) can0 201#6E05300262
(1617469260.658525) can0 203#7308904812000480
(1617469260.690418) can0 401#7C8B0000410C0000
(1617469260.691987) can0 300#035A0B5A1E0023
(1617469260.693489) can0 454#035A0B5A1E0023
(1617469260.740042) can0 400#01002C00
(1617469260.741724) can0 300#035A0B5A1E0023
(1617469260.743507) can0 454#035A0B5A1E0023
(1617469260.748616) can0 201#6E05D20062
(1617469260.761039) can0 203#8508B02C05000480
(1617469260.790415) can0 401#7C8B00000F0B0000
(1617469260.792409) can0 300#035A0B5A1E0023
(1617469260.793488) can0 454#035A0B5A1E0023
(1617469260.840708) can0 400#01002C00
(1617469260.842398) can0 300#035A0B5A1E0023
(1617469260.843513) can0 454#035A0B5A1E0023
(1617469260.851118) can0 201#6E05940262
(1617469260.863533) can0 203#B20830F21A000480
(1617469260.892035) can0 401#D28B0000E3090000
(1617469260.893492) can0 454#035A0B5A1E0023
(1617469260.893985) can0 300#035A0B5A1E0023
(1617469260.939823) can0 400#01002C00
(1617469260.941796) can0 300#035A0B5A1E0023
(1617469260.943488) can0 454#035A0B5A1E0023
(1617469260.943768) can0 450#1001
(1617469260.953619) can0 201#6E054A0662
(1617469260.966047) can0 203#C108507934000480
(1617469260.988463) can0 451#10010000235A64
(1617469260.988761) can0 450#0601
(1617469260.992645) can0 401#D28B0000D1090000
(1617469260.993488) can0 454#035A0B5A1E0023
(1617469260.994274) can0 300#035A0B5A1E0023
(1617469261.038052) can0 451#060100001E
(1617469261.038360) can0 450#0801
(1617469261.041567) can0 400#01002C00
(1617469261.043488) can0 454#035A0B5A1E0023
(1617469261.043927) can0 300#035A0B5A1E0023
(1617469261.056129) can0 201#6E05160862
(1617469261.068534) can0 203#CE0814854B000480
(1617469261.088495) can0 451#0801000028
(1617469261.088796) can0 450#0901
(1617469261.093035) can0 401#D28B0000E60A0000
(1617469261.093521) can0 454#035A0B5A1E0023
(1617469261.094661) can0 300#035A0B5A1E0023
(1617469261.139826) can0 451#090100005F
(1617469261.143347) can0 400#01002C00
(1617469261.143791) can0 454#035A0B5A1E0023
(1617469261.145333) can0 300#035A0B5A1E0023
(1617469261.158631) can0 201#6E05360162
(1617469261.171038) can0 203#DB08D87D1E000480
(1617469261.190584) can0 401#D28B0000F90B0000
(1617469261.192161) can0 300#035A0B5A1E0023
(1617469261.193484) can0 454#035A0B5A1E0023
(1617469261.240235) can0 400#01002C00
(1617469261.242331) can0 300#035A0B5A1E0023
(1617469261.243492) can0 454#035A0B5A1E0023
(1617469261.261140) can0 201#7805860162
(1617469261.273536) can0 203#F108D86210000480
(1617469261.290452) can0 401#D28B0000F60B0000
(1617469261.292034) can0 300#035A0B5A1E0023
(1617469261.293485) can0 454#035A0B5A1E0023
(1617469261.339975) can0 400#01002C00
(1617469261.341654) can0 300#035A0B5A1E0023
(1617469261.343481) can0 454#035A0B5A1E0023
(1617469261.363643) can0 201#78058A0262
(1617469261.376041) can0 203#FC08F8ED0E000480
(1617469261.388359) can0 204#0000000000000000
(1617469261.390863) can0 402#1E00000074C90100
(1617469261.393483) can0 454#035A0B5A1E0023
(1617469261.400641) can0 202#DA0E0000B2240500
(1617469261.440899) can0 400#01002C00
(1617469261.442592) can0 300#035A0B5A1E0023
(1617469261.443482) can0 454#035A0B5A1E0023
(1617469261.466155) can0 201#78059A0662
(1617469261.478540) can0 203#1A09A85A3B000480
(1617469261.490187) can0 401#A68B0000A80B0000
(1617469261.491746) can0 300#035A0B5A1E0023
(1617469261.493482) can0 454#035A0B5A1E0023
(1617469261.493756) can0 450#1001
(1617469261.538545) can0 451#10010000235A64
(1617469261.538845) can0 450#0601
(1617469261.542264) can0 400#01002C00
(1617469261.543480) can0 454#035A0B5A1E0023
(1617469261.543965) can0 300#035A0B5A1E0023
(1617469261.568635) can0 201#78054C0462
(1617469261.581058) can0 203#3509E4FC27000480
(1617469261.588072) can0 451#060100001E
(1617469261.588382) can0 450#0801
(1617469261.592230) can0 401#A68B0000C40C0000
(1617469261.593478) can0 454#035A0B5A1E0023
(1617469261.593917) can0 300#035A0B5A1E0023
(1617469261.637984) can0 451#0801000028
(1617469261.638284) can0 450#0901
(1617469261.641497) can0 400#01002C00
(1617469261.643485) can0 454#035A0B5A1E0023
(1617469261.643927) can0 300#035A0B5A1E0023
(1617469261.671158) can0 201#7805A40162
(1617469261.683554) can0 203#3F09AC4A18000480
(1617469261.689191) can0 451#090100005F
(1617469261.693215) can0 401#A68B0000650D0000
(1617469261.693645) can0 454#035A0B5A1E0023
(1617469261.694879) can0 300#035A0B5A1E0023
(1617469261.740141) can0 400#01002C00
(1617469261.741832) can0 300#035A0B5A1E0023
(1617469261.743479) can0 454#035A0B5A1E0023
(1617469261.773651) can0 201#AA050E0162
(1617469261.786059) can0 203#550924170A000480
(1617469261.790293) can0 401#A68B00006A0C0000
(1617469261.791846) can0 300#035A0B5A1E0023
(1617469261.793478) can0 454#035A0B5A1E0023
(1617469261.840212) can0 400#01002C00
(1617469261.842315) can0 300#035A0B5A1E0023
(1617469261.843480) can0 454#035A0B5A1E0023
(1617469261.876161) can0 201#AA052E0462
(1617469261.888547) can0 203#5E0914861D000480
(1617469261.890824) can0 401#A28B0000730B0000
(1617469261.892397) can0 300#035A0B5A1E0023
(1617469261.893477) can0 454#035A0B5A1E0023
(1617469261.941190) can0 400#01002C00
(1617469261.942894) can0 300#035A0B5A1E0023
(1617469261.943475) can0 454#035A0B5A1E0023
(1617469261.978657) can0 201#AA05E40762
(1617469261.990880) can0 401#A28B00008D0B0000
(1617469261.991349) can0 203#6B09200B4D000480
(1617469261.992734) can0 300#035A0B5A1E0023
(1617469261.993473) can0 454#035A0B5A1E0023
(1617469262.040396) can0 400#01002C00
(1617469262.042106) can0 300#035A0B5A1E0023
(1617469262.043480) can0 454#035A0B5A1E0023
(1617469262.043759) can0 450#1001
(1617469262.081170) can0 201#AA05960562
(1617469262.088214) can0 451#10010000235A64
(1617469262.088515) can0 450#0601
(1617469262.091877) can0 401#A28B0000610C0000
(1617469262.093475) can0 454#035A0B5A1E0023
(1617469262.093940) can0 203#6D09008746000480
(1617469262.094376) can0 300#035A0B5A1E0023
(1617469262.138475) can0 451#060100001E
(1617469262.138784) can0 450#0801
(1617469262.142829) can0 400#01002C00
(1617469262.143472) can0 454#035A0B5A1E0023
(1617469262.144636) can0 300#035A0B5A1E0023
(1617469262.183662) can0 201#AA05CC0162
(1617469262.189955) can0 451#0801000028
(1617469262.190261) can0 450#0901
(1617469262.193472) can0 454#035A0B5A1E0023
(1617469262.193948) can0 401#A28B00002A0D0000
(1617469262.195642) can0 300#035A0B5A1E0023
(1617469262.196112) can0 203#7E09402A13000480
(1617469262.238396) can0 451#090100005F
(1617469262.241996) can0 400#01002C00
(1617469262.243477) can0 454#035A0B5A1E0023
(1617469262.243973) can0 300#035A0B5A1E0023
(1617469262.286173) can0 201#AA05360162
(1617469262.290565) can0 401#A28B0000370D0000
(1617469262.292539) can0 300#035A0B5A1E0023
(1617469262.293474) can0 454#035A0B5A1E0023
(1617469262.298562) can0 203#8709C0A111000480
(1617469262.340693) can0 400#01002C00
(1617469262.342397) can0 300#035A0B5A1E0023
(1617469262.343472) can0 454#035A0B5A1E0023
(1617469262.388671) can0 201#B405DC0562
(1617469262.389592) can0 401#6F8B0000D10C0000
(1617469262.391166) can0 300#035A0B5A1E0023
(1617469262.393468) can0 454#035A0B5A1E0023
(1617469262.401071) can0 203#9D09C83736000480
(1617469262.413392) can0 204#0000000000000000
(1617469262.425676) can0 202#DA0E0000B7240500
(1617469262.442622) can0 400#01002C00
(1617469262.443474) can0 454#035A0B5A1E0023
(1617469262.444430) can0 300#035A0B5A1E0023
(1617469262.490865) can0 401#6F8B0000E90C0000
(1617469262.491210) can0 201#B4057C0662
(1617469262.492421) can0 300#035A0B5A1E0023
(1617469262.493469) can0 454#035A0B5A1E0023
(1617469262.503552) can0 203#9309A02D3C000480
(1617469262.540101) can0 400#01002C00
(1617469262.541805) can0 300#035A0B5A1E0023
(1617469262.543468) can0 454#035A0B5A1E0023
(1617469262.590600) can0 401#6F8B0000B00D0000
(1617469262.592460) can0 300#035A0B5A1E0023
(1617469262.593467) can0 454#035A0B5A1E0023
(1617469262.593830) can0 201#B405200362
(1617469262.594096) can0 450#1001
(1617469262.606072) can0 203#9909600329000480
(1617469262.638229) can0 451#10010000235A64
(1617469262.638526) can0 450#0601
(1617469262.642158) can0 400#01002C00
(1617469262.643467) can0 454#035A0B5A1E0023
(1617469262.643958) can0 300#035A0B5A1E0023
(1617469262.688329) can0 451#060100001E
(1617469262.688638) can0 450#0801
(1617469262.692063) can0 401#6F8B0000850D0000
(1617469262.693482) can0 454#035A0B5A1E0023
(1617469262.694272) can0 300#035A0B5A1E0023
(1617469262.696170) can0 201#B405AA0062
(1617469262.708574) can0 203#9D09A02403000480
(1617469262.739212) can0 451#0801000028
(1617469262.739516) can0 450#0901
(1617469262.743110) can0 400#01002C00
(1617469262.743539) can0 454#035A0B5A1E0023
(1617469262.744927) can0 300#035A0B5A1E0023
(1617469262.788232) can0 451#090100005F
(1617469262.792192) can0 401#6F8B0000EA0B0000
(1617469262.793465) can0 454#035A0B5A1E0023
(1617469262.793905) can0 300#035A0B5A1E0023
(1617469262.798653) can0 201#B405E60062
(1617469262.811092) can0 203#9F09FC7607000480
(1617469262.840622) can0 400#01002C00
(1617469262.842331) can0 300#035A0B5A1E0023
(1617469262.843474) can0 454#035A0B5A1E0023
(1617469262.889817) can0 403#590000009CDC0500
(1617469262.893465) can0 454#035A0B5A1E0023
(1617469262.901173) can0 201#B405B00462
(1617469262.913577) can0 203#AC09CCC02E000480
(1617469262.941248) can0 400#01002C00
(1617469262.942938) can0 300#035A0B5A1E0023
(1617469262.943473) can0 454#035A0B5A1E0023
(1617469262.991808) can0 401#8D8B00004A0A0000
(1617469262.993466) can0 454#035A0B5A1E0023
(1617469262.993904) can0 300#035A0B5A1E0023
(1617469263.003673) can0 201#BE054A0662
(1617469263.016085) can0 203#AC099CE53C000480
(1617469263.040745) can0 400#01002C00
(1617469263.042717) can0 300#035A0B5A1E0023
(1617469263.043464) can0 454#035A0B5A1E0023
(1617469263.090678) can0 401#8D8B0000000B0000
(1617469263.092244) can0 300#035A0B5A1E0023
(1617469263.093462) can0 454#035A0B5A1E0023
(1617469263.106179) can0 201#BE051C0262
(1617469263.118574) can0 203#A309B09217000480
(1617469263.140058) can0 400#01002C00
(1617469263.141736) can0 300#035A0B5A1E0023
(1617469263.143464) can0 454#035A0B5A1E0023
(1617469263.143742) can0 450#1001
(1617469263.188620) can0 451#10010000235A64
(1617469263.188922) can0 450#0601
(1617469263.192983) can0 401#8D8B0000FE0A0000
(1617469263.193492) can0 454#035A0B5A1E0023
(1617469263.194585) can0 300#035A0B5A1E0023
(1617469263.208678) can0 201#BE05180162
(1617469263.221098) can0 203#AF09FC7607000480
(1617469263.240007) can0 451#060100001E
(1617469263.240319) can0 450#0801
(1617469263.243469) can0 454#035A0B5A1E0023
(1617469263.243817) can0 400#01002C00
(1617469263.245788) can0 300#035A0B5A1E0023
(1617469263.288994) can0 451#0801000028
(1617469263.289296) can0 450#0901
(1617469263.292668) can0 401#DF8B0000390A0000
(1617469263.293459) can0 454#035A0B5A1E0023
(1617469263.294539) can0 300#035A0B5A1E0023
(1617469263.311195) can0 201#BE05E00162
(1617469263.323583) can0 203#B70914F70C000480
(1617469263.337736) can0 451#090100005F
(1617469263.341751) can0 400#01002C00
(1617469263.343462) can0 454#035A0B5A1E0023
(1617469263.343900) can0 300#035A0B5A1E0023
(1617469263.390908) can0 401#DF8B000084090000
(1617469263.392486) can0 300#035A0B5A1E0023
(1617469263.393459) can0 454#035A0B5A1E0023
(1617469263.413691) can0 201#BE051A0462
(1617469263.426080) can0 203#C509B44029000480
(1617469263.438409) can0 204#0000000000000000
(1617469263.440240) can0 400#01002C00
(1617469263.441923) can0 300#035A0B5A1E0023
(1617469263.443455) can0 454#035A0B5A1E0023
(1617469263.450687) can0 202#DA0E0000B9240500
(1617469263.462975) can0 666#5207010152016226
(1617469263.475298) can0 665#0000000053175300
(1617469263.487611) can0 200#1E0074C901000200
(1617469263.492612) can0 401#DF8B000084090000
(1617469263.493458) can0 454#035A0B5A1E0023
(1617469263.494186) can0 300#035A0B5A1E0023
(1617469263.516196) can0 201#BE05FC0362
(1617469263.528591) can0 203#C609DC092A000480
(1617469263.540754) can0 400#01002C00
(1617469263.542562) can0 300#035A0B5A1E0023
(1617469263.543457) can0 454#035A0B5A1E0023
(1617469263.590342) can0 401#DF8B0000B5090000
(1617469263.591899) can0 300#035A0B5A1E0023
(1617469263.593455) can0 454#035A0B5A1E0023
(1617469263.618681) can0 201#D2054A0162
(1617469263.631094) can0 203#CB09A85B0D000480
(1617469263.640443) can0 400#01002C00
(1617469263.642525) can0 300#035A0B5A1E0023
(1617469263.643462) can0 454#035A0B5A1E0023
(1617469263.690785) can0 401#DF8B000054090000
(1617469263.692353) can0 300#035A0B5A1E0023
(1617469263.693457) can0 454#035A0B5A1E0023
(1617469263.693737) can0 450#1001
(1617469263.721209) can0 201#D205960062
(1617469263.733609) can0 203#C609F0B604000480
(1617469263.738236) can0 451#10010000235A64
(1617469263.738540) can0 450#0601
(1617469263.741888) can0 400#01002C00
(1617469263.743456) can0 454#035A0B5A1E0023
(1617469263.744299) can0 300#035A0B5A1E0023
(1617469263.789855) can0 451#060100001E
(1617469263.790165) can0 450#0801
(1617469263.793454) can0 454#035A0B5A1E0023
(1617469263.793930) can0 401#FB8B000063080000
(1617469263.795374) can0 300#035A0B5A1E0023
(1617469263.823689) can0 201#D205FC0362
(1617469263.836090) can0 203#C809246521000480
(1617469263.837394) can0 451#0801000028
(1617469263.837702) can0 450#0901
(1617469263.841295) can0 400#01002C00
(1617469263.843098) can0 300#035A0B5A1E0023
(1617469263.843529) can0 454#035A0B5A1E0023
(1617469263.888813) can0 451#090100005F
(1617469263.892484) can0 401#FB8B0000E7070000
(1617469263.893455) can0 454#035A0B5A1E0023
(1617469263.894330) can0 300#035A0B5A1E0023
(1617469263.926209) can0 201#D205E60562
(1617469263.938600) can0 203#C409248A3A000480
(1617469263.940361) can0 400#01002C00
(1617469263.942560) can0 300#035A0B5A1E0023
(1617469263.943451) can0 454#035A0B5A1E0023
(1617469263.991114) can0 401#FB8B00008A080000
(1617469263.992685) can0 300#035A0B5A1E0023
(1617469263.993453) can0 454#035A0B5A1E0023
(1617469264.028707) can0 201#D205760262
(1617469264.041114) can0 203#C209FC9B20000480
(1617469264.041746) can0 400#01002C00
(1617469264.043458) can0 454#035A0B5A1E0023
(1617469264.043896) can0 300#035A0B5A1E0023
(1617469264.091178) can0 401#FB8B000012090000
(1617469264.093012) can0 300#035A0B5A1E0023
(1617469264.093497) can0 454#035A0B5A1E0023
(1617469264.131223) can0 201#BE05400162
(1617469264.140504) can0 400#01002C00
(1617469264.142327) can0 300#035A0B5A1E0023
(1617469264.143451) can0 454#035A0B5A1E0023
(1617469264.143919) can0 203#B509C4640B000480
(1617469264.190482) can0 401#FB8B0000F5080000
(1617469264.192053) can0 300#035A0B5A1E0023
(1617469264.193449) can0 454#035A0B5A1E0023
(1617469264.233712) can0 201#BE05400162
(1617469264.240534) can0 400#01002C00
(1617469264.243148) can0 300#035A0B5A1E0023
(1617469264.243580) can0 454#035A0B5A1E0023
(1617469264.243858) can0 450#1001
(1617469264.246109) can0 203#B109E06D09000480
(1617469264.288901) can0 451#10010000235A64
(1617469264.289198) can0 450#0601
(1617469264.293220) can0 401#FC8B000067080000
(1617469264.293654) can0 454#035A0B5A1E0023
(1617469264.294799) can0 300#035A0B5A1E0023
(1617469264.336226) can0 201#BE05E40262
(1617469264.338887) can0 451#060100001E
(1617469264.339202) can0 450#0801
(1617469264.342607) can0 400#01002C00
(1617469264.343451) can0 454#035A0B5A1E0023
(1617469264.344645) can0 300#035A0B5A1E0023
(1617469264.348600) can0 203#A70918A51E000480
(1617469264.388731) can0 451#0801000028
(1617469264.389056) can0 450#0901
(1617469264.392962) can0 402#1E0000002CC90100
(1617469264.393483) can0 454#035A0B5A1E0023
(1617469264.438207) can0 451#090100005F
(1617469264.438702) can0 201#BE05AC0362
(1617469264.442171) can0 400#01002C00
(1617469264.443454) can0 454#035A0B5A1E0023
(1617469264.443944) can0 300#035A0B5A1E0023
(1617469264.451106) can0 203#A709B44029000480
(1617469264.463436) can0 204#0000000000000000
(1617469264.475721) can0 202#DA0E0000BE240500
(1617469264.490722) can0 401#FC8B0000C9080000
(1617469264.492282) can0 300#035A0B5A1E0023
(1617469264.493442) can0 454#035A0B5A1E0023
(1617469264.541228) can0 201#BE05AE0162
(1617469264.542345) can0 400#01002C00
(1617469264.543448) can0 454#035A0B5A1E0023
(1617469264.544034) can0 300#035A0B5A1E0023
(1617469264.553607) can0 203#AF09106E14000480
(1617469264.591141) can0 401#FC8B000011090000
(1617469264.592711) can0 300#035A0B5A1E0023
(1617469264.593446) can0 454#035A0B5A1E0023
(1617469264.640013) can0 400#01002C00
(1617469264.641846) can0 300#035A0B5A1E0023
(1617469264.643446) can0 454#035A0B5A1E0023
(1617469264.643812) can0 201#BE05960062
(1617469264.656122) can0 203#B109D0240E000480
(1617469264.690828) can0 401#FC8B000069080000
(1617469264.692676) can0 300#035A0B5A1E0023
(1617469264.693444) can0 454#035A0B5A1E0023
(1617469264.740983) can0 400#01002C00
(1617469264.742764) can0 300#035A0B5A1E0023
(1617469264.743444) can0 454#035A0B5A1E0023
(1617469264.746215) can0 201#C8057C0162
(1617469264.758620) can0 203#B009D0240E000480
(1617469264.790343) can0 401#0A8C000035070000
(1617469264.791890) can0 300#035A0B5A1E0023
(1617469264.793443) can0 454#035A0B5A1E0023
(1617469264.793725) can0 450#1001
(1617469264.840570) can0 451#10010000235A64
(1617469264.840869) can0 450#0601
(1617469264.843463) can0 454#035A0B5A1E0023
(1617469264.844383) can0 400#01002C00
(1617469264.846089) can0 300#035A0B5A1E0023
(1617469264.848697) can0 201#C8056A0462
(1617469264.861124) can0 203#A809C0002C000480
(1617469264.888467) can0 451#060100001E
(1617469264.888773) can0 450#0801
(1617469264.892502) can0 401#0A8C000028070000
(1617469264.893441) can0 454#035A0B5A1E0023
(1617469264.894066) can0 300#035A0B5A1E0023
(1617469264.938316) can0 451#0801000028
(1617469264.938620) can0 450#0901
(1617469264.942006) can0 400#01002C00
(1617469264.943443) can0 454#035A0B5A1E0023
(1617469264.943995) can0 300#035A0B5A1E0023
(1617469264.951214) can0 201#C805CA0362
(1617469264.963619) can0 203#A309B44029000480
(1617469264.988707) can0 451#090100005F
(1617469264.992863) can0 401#0A8C0000C3070000
(1617469264.993440) can0 454#035A0B5A1E0023
(1617469264.994416) can0 300#035A0B5A1E0023
(1617469265.040993) can0 400#01002C00
(1617469265.042774) can0 300#035A0B5A1E0023
(1617469265.043438) can0 454#035A0B5A1E0023
(1617469265.053714) can0 201#C8056E0062
(1617469265.066137) can0 203#8609603704000480
(1617469265.092179) can0 401#0A8C0000F0070000
(1617469265.093440) can0 454#035A0B5A1E0023
(1617469265.094027) can0 300#035A0B5A1E0023
(1617469265.140894) can0 400#01002C00
(1617469265.142951) can0 300#035A0B5A1E0023
(1617469265.143486) can0 454#035A0B5A1E0023
(1617469265.156226) can0 201#C8050A0062
(1617469265.168631) can0 203#3608DC5500000480
(1617469265.191307) can0 401#2C8C0000AE060000
(1617469265.192863) can0 300#035A0B5A1E0023
(1617469265.193439) can0 454#035A0B5A1E0023
(1617469265.239488) can0 400#01002C00
(1617469265.241273) can0 300#035A0B5A1E0023
(1617469265.243445) can0 454#035A0B5A1E0023
(1617469265.258726) can0 201#8C05000062
(1617469265.271150) can0 203#4C06000000000480
(1617469265.291172) can0 401#2C8C00007C050000
(1617469265.293439) can0 454#035A0B5A1E0023
(1617469265.293878) can0 300#035A0B5A1E0023
(1617469265.342082) can0 400#01002C00
(1617469265.343438) can0 454#035A0B5A1E0023
(1617469265.343876) can0 300#035A0B5A1E0023
(1617469265.344141) can0 450#1001
(1617469265.360693) can0 201#8C05000062
(1617469265.372786) can0 203#4C06000000000480
(1617469265.388220) can0 451#10010000235A64
(1617469265.388520) can0 450#0601
(1617469265.391756) can0 401#2C8C000000000000
(1617469265.393308) can0 300#035A0B5A1E0023
(1617469265.393739) can0 454#035A0B5A1E0023
(1617469265.436794) can0 451#060100001E
(1617469265.437099) can0 450#0801
(1617469265.440246) can0 400#01000C00
(1617469265.442430) can0 300#035A0B5A1E0023
(1617469265.443433) can0 454#035A0B5A1E0023
(1617469265.460646) can0 201#8C05000062
(1617469265.472810) can0 203#0000000000000480
(1617469265.484798) can0 204#0000000000000000
(1617469265.486706) can0 451#0801000028
(1617469265.487016) can0 450#0901
(1617469265.490537) can0 401#2C8C000000000000
(1617469265.492082) can0 300#035A0B5A1E0023
(1617469265.493434) can0 454#035A0B5A1E0023
(1617469265.496780) can0 202#DA0E0000C2240500
(1617469265.536269) can0 451#090100005F
(1617469265.540074) can0 400#01000C00
(1617469265.541856) can0 300#035A0B5A1E0023
(1617469265.543433) can0 454#035A0B5A1E0023
(1617469265.560684) can0 201#8C05000062
(1617469265.572797) can0 203#0000000000000480
(1617469265.588869) can0 401#2C8C000000000000
(1617469265.590418) can0 300#035A0B5A1E0023
(1617469265.593434) can0 454#035A0B5A1E0023
(1617469265.638545) can0 400#01000C00
(1617469265.640614) can0 300#035A0B5A1E0023
(1617469265.643443) can0 454#035A0B5A1E0023
(1617469265.660653) can0 201#8C05000062
(1617469265.672813) can0 203#0000000000000480
(1617469265.688663) can0 401#D08C000000000000
(1617469265.690206) can0 300#035A0B5A1E0023
(1617469265.693431) can0 454#035A0B5A1E0023
(1617469265.737730) can0 400#01000C00
(1617469265.739542) can0 300#035A0B5A1E0023
(1617469265.743436) can0 454#035A0B5A1E0023
(1617469265.760688) can0 201#8C05000062
(1617469265.772807) can0 203#0000000000000480
(1617469265.788534) can0 401#D08C000000000000
(1617469265.790483) can0 300#035A0B5A1E0023
(1617469265.793432) can0 454#035A0B5A1E0023
(1617469265.838728) can0 400#01000C00
(1617469265.840515) can0 300#035A0B5A1E0023
(1617469265.843435) can0 454#035A0B5A1E0023
(1617469265.860660) can0 201#8C05000062
(1617469265.872812) can0 203#0000000000000480
(1617469265.890291) can0 403#590000009CDC0500
(1617469265.893436) can0 454#035A0B5A1E0023
(1617469265.893712) can0 450#1001
(1617469265.936686) can0 451#10010000235A64
(1617469265.936988) can0 450#0601
(1617469265.940306) can0 400#01000C00
(1617469265.942001) can0 300#035A0B5A1E0023
(1617469265.943431) can0 454#035A0B5A1E0023
(1617469265.960691) can0 201#2805000062
(1617469265.972817) can0 203#0000000000000480
(1617469265.986379) can0 451#060100001E
(1617469265.986685) can0 450#0801
(1617469265.990325) can0 401#D08C000000000000
(1617469265.991891) can0 300#035A0B5A1E0023
(1617469265.993427) can0 454#035A0B5A1E0023
(1617469266.036872) can0 451#0801000028
(1617469266.037170) can0 450#0901
(1617469266.040253) can0 400#01000C00
(1617469266.042355) can0 300#035A0B5A1E0023
(1617469266.043434) can0 454#035A0B5A1E0023
(1617469266.060716) can0 201#2805000062
(1617469266.072867) can0 203#0000000000000480
(1617469266.086655) can0 451#090100005F
(1617469266.090967) can0 401#D08C000000000000
(1617469266.092525) can0 300#035A0B5A1E0023
(1617469266.093430) can0 454#035A0B5A1E0023
(1617469266.139874) can0 400#01000C00
(1617469266.141567) can0 300#035A0B5A1E0023
(1617469266.143427) can0 454#035A0B5A1E0023
(1617469266.160748) can0 201#2805000062
(1617469266.172868) can0 203#0000000000000480
(1617469266.189083) can0 401#F68C000000000000
(1617469266.190621) can0 300#035A0B5A1E0023
(1617469266.193431) can0 454#035A0B5A1E0023
(1617469266.238278) can0 400#01000C00
(1617469266.240485) can0 300#035A0B5A1E0023
(1617469266.243436) can0 454#035A0B5A1E0023
(1617469266.260720) can0 201#2805000062
(1617469266.272879) can0 203#0000000000000480
(1617469266.288594) can0 401#F68C000000000000
(1617469266.290146) can0 300#035A0B5A1E0023
(1617469266.293429) can0 454#035A0B5A1E0023
(1617469266.338661) can0 400#01000C00
(1617469266.340446) can0 300#035A0B5A1E0023
(1617469266.343431) can0 454#035A0B5A1E0023
(1617469266.360750) can0 201#2805000062
(1617469266.372888) can0 203#0000000000000480
(1617469266.390391) can0 401#F68C000000000000
(1617469266.391945) can0 300#035A0B5A1E0023
(1617469266.393428) can0 454#035A0B5A1E0023
(1617469266.438696) can0 400#01000C00
(1617469266.440482) can0 300#035A0B5A1E0023
(1617469266.443431) can0 454#035A0B5A1E0023
(1617469266.443710) can0 450#1001
(1617469266.460746) can0 201#2805000062
(1617469266.472894) can0 203#0000000000000480
(1617469266.484879) can0 204#0000000000000000
(1617469266.486977) can0 451#10010000235A64
(1617469266.487279) can0 450#0601
(1617469266.490468) can0 401#F68C000000000000
(1617469266.492439) can0 300#035A0B5A1E0023
(1617469266.493426) can0 454#035A0B5A1E0023
(1617469266.496861) can0 202#DA0E0000C4240500
(1617469266.508835) can0 666#5207010152016226
(1617469266.520865) can0 665#0000000053175300
(1617469266.532865) can0 200#1E002CC901000000
(1617469266.536659) can0 451#060100001E
(1617469266.536965) can0 450#0801
(1617469266.540526) can0 400#01000C00
(1617469266.542225) can0 300#035A0B5A1E0023
(1617469266.543425) can0 454#035A0B5A1E0023
(1617469266.560760) can0 201#B004000062
(1617469266.572875) can0 203#0000000000000480
(1617469266.586443) can0 451#0801000028
(1617469266.586747) can0 450#0901
(1617469266.590401) can0 401#F78C000000000000
(1617469266.591961) can0 300#035A0B5A1E0023
(1617469266.593418) can0 454#035A0B5A1E0023
(1617469266.636198) can0 451#090100005F
(1617469266.639591) can0 400#01000C00
(1617469266.641302) can0 300#035A0B5A1E0023
(1617469266.643425) can0 454#035A0B5A1E0023
(1617469266.660725) can0 201#B004000062
(1617469266.672887) can0 203#0000000000000480
(1617469266.688886) can0 401#F78C000000000000
(1617469266.690736) can0 300#035A0B5A1E0023
(1617469266.693424) can0 454#035A0B5A1E0023
(1617469266.738395) can0 400#01000C00
(1617469266.740175) can0 300#035A0B5A1E0023
(1617469266.743422) can0 454#035A0B5A1E0023
(1617469266.760763) can0 201#B004000062
(1617469266.772880) can0 203#0000000000000480
(1617469266.788928) can0 401#F78C000000000000
(1617469266.790550) can0 300#035A0B5A1E0023
(1617469266.793425) can0 454#035A0B5A1E0023
(1617469266.838447) can0 400#01000C00
(1617469266.840548) can0 300#035A0B5A1E0023
(1617469266.843430) can0 454#035A0B5A1E0023
(1617469266.860728) can0 201#B004000062
(1617469266.872894) can0 203#0000000000000480
(1617469266.889025) can0 401#F78C000000000000
(1617469266.890620) can0 300#035A0B5A1E0023
(1617469266.893420) can0 454#035A0B5A1E0023
(1617469266.940186) can0 400#01000C00
(1617469266.942159) can0 300#035A0B5A1E0023
(1617469266.943422) can0 454#035A0B5A1E0023
(1617469266.960767) can0 201#B004000062
(1617469266.972887) can0 203#0000000000000480
(1617469266.988417) can0 401#F78C000000000000
(1617469266.990322) can0 300#035A0B5A1E0023
(1617469266.993421) can0 454#035A0B5A1E0023
(1617469266.993701) can0 450#1001
(1617469267.036624) can0 451#10010000235A64
(1617469267.036924) can0 450#0601
(1617469267.040164) can0 400#01000C00
(1617469267.041859) can0 300#035A0B5A1E0023
(1617469267.043419) can0 454#035A0B5A1E0023
(1617469267.060761) can0 201#B004000062
(1617469267.072888) can0 203#0000000000000480
(1617469267.086961) can0 451#060100001E
(1617469267.087271) can0 450#0801
(1617469267.090432) can0 401#FA8C000000000000
(1617469267.092390) can0 300#035A0B5A1E0023
(1617469267.093418) can0 454#035A0B5A1E0023
(1617469267.136105) can0 451#0801000028
(1617469267.136409) can0 450#0901
(1617469267.139317) can0 400#01000C00
(1617469267.141772) can0 300#035A0B5A1E0023
(1617469267.143420) can0 454#035A0B5A1E0023
(1617469267.160768) can0 201#B004000062
(1617469267.172888) can0 203#0000000000000480
(1617469267.188252) can0 451#090100005F
(1617469267.191695) can0 401#FA8C000000000000
(1617469267.193255) can0 300#035A0B5A1E0023
(1617469267.193686) can0 454#035A0B5A1E0023
(1617469267.238956) can0 400#01000C00
(1617469267.240655) can0 300#035A0B5A1E0023
(1617469267.243425) can0 454#035A0B5A1E0023
(1617469267.260759) can0 201#B004000062
(1617469267.272898) can0 203#0000000000000480
(1617469267.288445) can0 401#FA8C000000000000
(1617469267.290456) can0 300#035A0B5A1E0023
(1617469267.293419) can0 454#035A0B5A1E0023
(1617469267.338353) can0 400#01000C00
(1617469267.340151) can0 300#035A0B5A1E0023
(1617469267.343418) can0 454#035A0B5A1E0023
(1617469267.360771) can0 201#B004000062
(1617469267.372891) can0 203#0000000000000480
(1617469267.388916) can0 402#1E00000008C90100
(1617469267.393417) can0 454#035A0B5A1E0023
(1617469267.440179) can0 400#01000C00
(1617469267.441895) can0 300#035A0B5A1E0023
(1617469267.443414) can0 454#035A0B5A1E0023
(1617469267.460766) can0 201#A203000062
(1617469267.472906) can0 203#0000000000000480
(1617469267.484898) can0 204#0000000000000000
(1617469267.488895) can0 401#FA8C000000000000
(1617469267.490446) can0 300#035A0B5A1E0023
(1617469267.493414) can0 454#035A0B5A1E0023
(1617469267.496874) can0 202#DA0E0000C9240500
(1617469267.538753) can0 400#01000C00
(1617469267.540511) can0 300#035A0B5A1E0023
(1617469267.543412) can0 454#035A0B5A1E0023
(1617469267.543693) can0 450#1001
(1617469267.560776) can0 201#A203000062
(1617469267.572896) can0 203#0000000000000480
(1617469267.586171) can0 451#10010000235A64
(1617469267.586458) can0 450#0601
(1617469267.589491) can0 401#FA8C000000000000
(1617469267.591323) can0 300#035A0B5A1E0023
(1617469267.593415) can0 454#035A0B5A1E0023
(1617469267.636514) can0 451#060100001E
(1617469267.636822) can0 450#0801
(1617469267.640207) can0 400#01000C00
(1617469267.641908) can0 300#035A0B5A1E0023
(1617469267.643413) can0 454#035A0B5A1E0023
(1617469267.660770) can0 201#A203000062
(1617469267.672908) can0 203#0000000000000480
(1617469267.687037) can0 451#0801000028
(1617469267.687328) can0 450#0901
(1617469267.690414) can0 401#FA8C000000000000
(1617469267.692602) can0 300#035A0B5A1E0023
(1617469267.693411) can0 454#035A0B5A1E0023
(1617469267.737233) can0 451#090100005F
(1617469267.740738) can0 400#01000C00
(1617469267.742446) can0 300#035A0B5A1E0023
(1617469267.743414) can0 454#035A0B5A1E0023
(1617469267.760778) can0 201#A203000062
(1617469267.772899) can0 203#0000000000000480
(1617469267.788582) can0 401#FA8C000000000000
(1617469267.790124) can0 300#035A0B5A1E0023
(1617469267.793412) can0 454#035A0B5A1E0023
(1617469267.838730) can0 400#01000C00
(1617469267.840512) can0 300#035A0B5A1E0023
(1617469267.843414) can0 454#035A0B5A1E0023
(1617469267.860770) can0 201#A203000062
(1617469267.872917) can0 203#0000000000000480
(1617469267.888554) can0 401#FA8C000000000000
(1617469267.890509) can0 300#035A0B5A1E0023
(1617469267.893407) can0 454#035A0B5A1E0023
(1617469267.938877) can0 400#01000C00
(1617469267.940675) can0 300#035A0B5A1E0023
(1617469267.943411) can0 454#035A0B5A1E0023
(1617469267.960787) can0 201#A203000062
(1617469267.972906) can0 203#0000000000000480
(1617469267.990395) can0 401#FA8C000000000000
(1617469267.992217) can0 300#035A0B5A1E0023
(1617469267.993409) can0 454#035A0B5A1E0023
(1617469268.038409) can0 400#01000C00
(1617469268.040443) can0 300#035A0B5A1E0023
(1617469268.043415) can0 454#035A0B5A1E0023
(1617469268.060779) can0 201#A203000062
(1617469268.072916) can0 203#0000000000000480
(1617469268.087597) can0 401#FB8C000000000000
(1617469268.089555) can0 300#035A0B5A1E0023
(1617469268.093423) can0 454#035A0B5A1E0023
(1617469268.093691) can0 450#1001
(1617469268.137151) can0 451#10010000235A64
(1617469268.137452) can0 450#0601
(1617469268.140270) can0 400#01000C00
(1617469268.142428) can0 300#035A0B5A1E0023
(1617469268.143407) can0 454#035A0B5A1E0023
(1617469268.160779) can0 201#A203000062
(1617469268.172912) can0 203#0000000000000480
(1617469268.186838) can0 451#060100001E
(1617469268.187146) can0 450#0801
(1617469268.190994) can0 401#FB8C000000000000
(1617469268.192546) can0 300#035A0B5A1E0023
(1617469268.193404) can0 454#035A0B5A1E0023
(1617469268.238491) can0 451#0801000028
(1617469268.238792) can0 450#0901
(1617469268.241718) can0 400#01000C00
(1617469268.243408) can0 454#035A0B5A1E0023
(1617469268.243846) can0 300#035A0B5A1E0023
(1617469268.260784) can0 201#A203000062
(1617469268.272921) can0 203#0000000000000480
(1617469268.287400) can0 451#090100005F
(1617469268.290802) can0 401#FB8C000000000000
(1617469268.292634) can0 300#035A0B5A1E0023
(1617469268.293404) can0 454#035A0B5A1E0023
(1617469268.338409) can0 400#01000C00
(1617469268.340518) can0 300#035A0B5A1E0023
(1617469268.343408) can0 454#035A0B5A1E0023
(1617469268.360784) can0 201#A203000062
(1617469268.372919) can0 203#0000000000000480
(1617469268.388632) can0 401#FB8C000000000000
(1617469268.390196) can0 300#035A0B5A1E0023
(1617469268.393405) can0 454#035A0B5A1E0023
(1617469268.438782) can0 400#01000C00
(1617469268.440511) can0 300#035A0B5A1E0023
(1617469268.443409) can0 454#035A0B5A1E0023
(1617469268.460789) can0 201#A203000062
(1617469268.472929) can0 203#0000000000000480
(1617469268.484924) can0 204#0000000000000000
(1617469268.490434) can0 401#008D000000000000
(1617469268.491989) can0 300#035A0B5A1E0023
(1617469268.493404) can0 454#035A0B5A1E0023
(1617469268.496899) can0 202#DA0E0000C9240500
(1617469268.538849) can0 400#01000C00
(1617469268.540592) can0 300#035A0B5A1E0023
(1617469268.543404) can0 454#035A0B5A1E0023
(1617469268.560800) can0 201#A203000062
(1617469268.572923) can0 203#0000000000000480
(1617469268.588837) can0 401#008D000000000000
(1617469268.590375) can0 300#035A0B5A1E0023
(1617469268.593400) can0 454#035A0B5A1E0023
(1617469268.638461) can0 400#01000C00
(1617469268.640490) can0 300#035A0B5A1E0023
(1617469268.643399) can0 454#035A0B5A1E0023
(1617469268.643680) can0 450#1001
(1617469268.660796) can0 201#A203000062
(1617469268.672931) can0 203#0000000000000480
(1617469268.686697) can0 451#10010000235A64
(1617469268.687003) can0 450#0601
(1617469268.690439) can0 401#008D000000000000
(1617469268.691976) can0 300#035A0B5A1E0023
(1617469268.693396) can0 454#035A0B5A1E0023
(1617469268.737237) can0 451#060100001E
(1617469268.737545) can0 450#0801
(1617469268.740409) can0 400#01000C00
(1617469268.742812) can0 300#035A0B5A1E0023
(1617469268.743398) can0 454#035A0B5A1E0023
(1617469268.760804) can0 201#A203000062
(1617469268.772924) can0 203#0000000000000480
(1617469268.787238) can0 451#0801000028
(1617469268.787542) can0 450#0901
(1617469268.790923) can0 401#008D000000000000
(1617469268.792472) can0 300#035A0B5A1E0023
(1617469268.793401) can0 454#035A0B5A1E0023
(1617469268.836732) can0 451#090100005F
(1617469268.840196) can0 400#01000C00
(1617469268.841955) can0 300#035A0B5A1E0023
(1617469268.843407) can0 454#035A0B5A1E0023
(1617469268.860799) can0 201#A203000062
(1617469268.872938) can0 203#0000000000000480
(1617469268.888993) can0 403#590000009CDC0500
(1617469268.893397) can0 454#035A0B5A1E0023
(1617469268.938499) can0 400#01000C00
(1617469268.940648) can0 300#035A0B5A1E0023
(1617469268.943400) can0 454#035A0B5A1E0023
(1617469268.960800) can0 201#A203000062
(1617469268.972907) can0 203#0000000000000480
(1617469268.988713) can0 401#FD8C000000000000
(1617469268.990270) can0 300#035A0B5A1E0023
(1617469268.993397) can0 454#035A0B5A1E0023
(1617469269.039629) can0 400#01000C00
(1617469269.041360) can0 300#035A0B5A1E0023
(1617469269.043395) can0 454#035A0B5A1E0023
(1617469269.060807) can0 201#A203000062
(1617469269.072940) can0 203#0000000000000480
(1617469269.088667) can0 401#FD8C000000000000
(1617469269.090499) can0 300#035A0B5A1E0023
(1617469269.093394) can0 454#035A0B5A1E0023
(1617469269.138646) can0 400#01000C00
(1617469269.140340) can0 300#035A0B5A1E0023
(1617469269.143397) can0 454#035A0B5A1E0023
(1617469269.160812) can0 201#A203000062
(1617469269.172937) can0 203#0000000000000480
(1617469269.188891) can0 401#FD8C000000000000
(1617469269.190443) can0 300#035A0B5A1E0023
(1617469269.193394) can0 454#035A0B5A1E0023
(1617469269.193676) can0 450#1001
(1617469269.237120) can0 451#10010000235A64
(1617469269.237406) can0 450#0601
(1617469269.240985) can0 400#01000C00
(1617469269.242744) can0 300#035A0B5A1E0023
(1617469269.243402) can0 454#035A0B5A1E0023
(1617469269.260806) can0 201#A203000062
(1617469269.272943) can0 203#0000000000000480
(1617469269.288471) can0 451#060100001E
(1617469269.288779) can0 450#0801
(1617469269.291878) can0 401#FD8C000000000000
(1617469269.293394) can0 454#035A0B5A1E0023
(1617469269.293834) can0 300#035A0B5A1E0023
(1617469269.337677) can0 451#0801000028
(1617469269.337969) can0 450#0901
(1617469269.340858) can0 400#01000C00
(1617469269.342890) can0 300#035A0B5A1E0023
(1617469269.343426) can0 454#035A0B5A1E0023
(1617469269.360818) can0 201#A203000062
(1617469269.372941) can0 203#0000000000000480
(1617469269.386940) can0 451#090100005F
(1617469269.390754) can0 401#FD8C000000000000
(1617469269.392428) can0 300#035A0B5A1E0023
(1617469269.393391) can0 454#035A0B5A1E0023
(1617469269.438591) can0 400#01000C00
(1617469269.440294) can0 300#035A0B5A1E0023
(1617469269.443394) can0 454#035A0B5A1E0023
(1617469269.460811) can0 201#A203000062
(1617469269.472950) can0 203#0000000000000480
(1617469269.484949) can0 204#0000000000000000
(1617469269.488376) can0 401#038D000000000000
(1617469269.489950) can0 300#035A0B5A1E0023
(1617469269.493390) can0 454#035A0B5A1E0023
(1617469269.496969) can0 202#DA0E0000C9240500
(1617469269.508950) can0 666#5207010152016226
(1617469269.520976) can0 665#0000000053175300
(1617469269.532986) can0 200#1E0008C901000100
(1617469269.540487) can0 400#01000C00
(1617469269.542199) can0 300#035A0B5A1E0023
(1617469269.543392) can0 454#035A0B5A1E0023
(1617469269.560870) can0 201#A203000062
(1617469269.572993) can0 203#0000000000000480
(1617469269.589120) can0 401#038D000000000000
(1617469269.590642) can0 300#035A0B5A1E0023
(1617469269.593390) can0 454#035A0B5A1E0023
(1617469269.638794) can0 400#01000C00
(1617469269.640497) can0 300#035A0B5A1E0023
(1617469269.643398) can0 454#035A0B5A1E0023
(1617469269.660866) can0 201#A203000062
(1617469269.673006) can0 203#0000000000000480
(1617469269.688707) can0 401#038D000000000000
(1617469269.690554) can0 300#035A0B5A1E0023
(1617469269.693387) can0 454#035A0B5A1E0023
(1617469269.738707) can0 400#01000C00
(1617469269.740396) can0 300#035A0B5A1E0023
(1617469269.743386) can0 454#035A0B5A1E0023
(1617469269.743666) can0 450#1001
(1617469269.760879) can0 201#A203000062
(1617469269.772995) can0 203#0000000000000480
(1617469269.787279) can0 451#10010000235A64
(1617469269.787581) can0 450#0601
(1617469269.790626) can0 401#038D000000000000
(1617469269.792928) can0 300#035A0B5A1E0023
(1617469269.793431) can0 454#035A0B5A1E0023
(1617469269.837419) can0 451#060100001E
(1617469269.837725) can0 450#0801
(1617469269.840872) can0 400#01000C00
(1617469269.842646) can0 300#035A0B5A1E0023
(1617469269.843388) can0 454#035A0B5A1E0023
(1617469269.860870) can0 201#A203000062
(1617469269.873009) can0 203#0000000000000480
(1617469269.886722) can0 451#0801000028
(1617469269.887028) can0 450#0901
(1617469269.890417) can0 401#038D000000000000
(1617469269.892076) can0 300#035A0B5A1E0023
(1617469269.893386) can0 454#035A0B5A1E0023
(1617469269.937434) can0 451#090100005F
(1617469269.940587) can0 400#01000C00
(1617469269.942676) can0 300#035A0B5A1E0023
(1617469269.943387) can0 454#035A0B5A1E0023
(1617469269.960879) can0 201#A203000062
(1617469269.973002) can0 203#0000000000000480
(1617469269.988040) can0 401#FE8C000000000000
(1617469269.989610) can0 300#035A0B5A1E0023
(1617469269.993385) can0 454#035A0B5A1E0023
(1617469270.039113) can0 400#01000C00
(1617469270.040803) can0 300#035A0B5A1E0023
(1617469270.043404) can0 454#035A0B5A1E0023
(1617469270.060875) can0 201#A203000062
(1617469270.073015) can0 203#0000000000000480
(1617469270.090586) can0 401#FE8C000000000000
(1617469270.092538) can0 300#035A0B5A1E0023
(1617469270.093384) can0 454#035A0B5A1E0023
(1617469270.138614) can0 400#01000C00
(1617469270.140602) can0 300#035A0B5A1E0023
(1617469270.143381) can0 454#035A0B5A1E0023
(1617469270.160883) can0 201#A203000062
(1617469270.172981) can0 203#0000000000000480
(1617469270.188919) can0 401#FE8C000000000000
(1617469270.190461) can0 300#035A0B5A1E0023
(1617469270.193386) can0 454#035A0B5A1E0023
(1617469270.238877) can0 400#01000C00
(1617469270.240576) can0 300#035A0B5A1E0023
(1617469270.243381) can0 454#035A0B5A1E0023
(1617469270.260880) can0 201#A203000062
(1617469270.273017) can0 203#0000000000000480
(1617469270.288789) can0 401#FE8C000000000000
(1617469270.291208) can0 300#035A0B5A1E0023
(1617469270.293382) can0 454#035A0B5A1E0023
(1617469270.293661) can0 450#1001
(1617469270.338734) can0 451#10010000235A64
(1617469270.339062) can0 450#0601
(1617469270.341865) can0 400#01000C00
(1617469270.343381) can0 454#035A0B5A1E0023
(1617469270.343823) can0 300#035A0B5A1E0023
(1617469270.360888) can0 201#A203000062
(1617469270.372987) can0 203#0000000000000480
(1617469270.387660) can0 451#060100001E
(1617469270.387969) can0 450#0801
(1617469270.391265) can0 402#1E00000008C90100
(1617469270.393381) can0 454#035A0B5A1E0023
(1617469270.436435) can0 451#0801000028
(1617469270.436741) can0 450#0901
(1617469270.439610) can0 400#01000C00
(1617469270.441752) can0 300#035A0B5A1E0023
(1617469270.443386) can0 454#035A0B5A1E0023
(1617469270.460883) can0 201#A203000062
(1617469270.473023) can0 203#0000000000000480
(1617469270.485019) can0 204#0000000000000000
(1617469270.486682) can0 451#090100005F
(1617469270.490428) can0 401#008D000000000000
(1617469270.491976) can0 300#035A0B5A1E0023
(1617469270.493379) can0 454#035A0B5A1E0023
(1617469270.496992) can0 202#DA0E0000C9240500
(1617469270.538787) can0 400#01000C00
(1617469270.540492) can0 300#035A0B5A1E0023
(1617469270.543381) can0 454#035A0B5A1E0023
(1617469270.560893) can0 201#A203000062
(1617469270.572993) can0 203#0000000000000400
(1617469270.589700) can0 401#008D000000000000
(1617469270.592005) can0 300#035A0B5A1E0023
(1617469270.593379) can0 454#035A0B5A1E0023
(1617469270.638667) can0 400#01000C00
(1617469270.640383) can0 300#035A0B5A1E0023
(1617469270.643378) can0 454#035A0B5A1E0023
(1617469270.660887) can0 201#A203000062
(1617469270.673030) can0 203#0000000000000400
(1617469270.688740) can0 401#008D000000000000
(1617469270.690398) can0 300#035A0B5A1E0023
(1617469270.693377) can0 454#035A0B5A1E0023
(1617469270.738347) can0 400#01000C00
(1617469270.740344) can0 300#035A0B5A1E0023
(1617469270.743378) can0 454#035A0B5A1E0023
(1617469270.760899) can0 201#A203000062
(1617469270.772995) can0 203#0000000000000400
(1617469270.788677) can0 401#008D000000000000
(1617469270.790333) can0 300#035A0B5A1E0023
(1617469270.793372) can0 454#035A0B5A1E0023
(1617469270.838631) can0 400#01000C00
(1617469270.840335) can0 300#035A0B5A1E0023
(1617469270.843382) can0 454#035A0B5A1E0023
(1617469270.843663) can0 450#1001
(1617469270.860891) can0 201#A203000062
(1617469270.873034) can0 203#0000000000000400
(1617469270.887509) can0 451#10010000235A64
(1617469270.887812) can0 450#0601
(1617469270.890955) can0 401#028D000000000000
(1617469270.892584) can0 300#035A0B5A1E0023
(1617469270.893376) can0 454#035A0B5A1E0023
(1617469270.936194) can0 451#060100001E
(1617469270.936503) can0 450#0801
(1617469270.939361) can0 400#01000C00
(1617469270.941063) can0 300#035A0B5A1E0023
(1617469270.943375) can0 454#035A0B5A1E0023
(1617469270.960893) can0 201#A203000062
(1617469270.973002) can0 203#0000000000000400
(1617469270.987428) can0 451#0801000028
(1617469270.987733) can0 450#0901
(1617469270.990650) can0 401#028D000000000000
(1617469270.992565) can0 300#035A0B5A1E0023
(1617469270.993376) can0 454#035A0B5A1E0023
(1617469271.037187) can0 451#090100005F
(1617469271.040448) can0 400#01000C00
(1617469271.042195) can0 300#035A0B5A1E0023
(1617469271.043374) can0 454#035A0B5A1E0023
(1617469271.060948) can0 201#A203000062
(1617469271.073089) can0 203#0000000000000400
(1617469271.089095) can0 401#028D000000000000
(1617469271.090725) can0 300#035A0B5A1E0023
(1617469271.093373) can0 454#035A0B5A1E0023
(1617469271.140236) can0 400#01000C00
(1617469271.142263) can0 300#035A0B5A1E0023
(1617469271.143375) can0 454#035A0B5A1E0023
(1617469271.160946) can0 201#A203000062
(1617469271.173073) can0 203#0000000000000400
(1617469271.188480) can0 401#028D000000000000
(1617469271.190426) can0 300#035A0B5A1E0023
(1617469271.193374) can0 454#035A0B5A1E0023
(1617469271.238644) can0 400#01000C00
(1617469271.240360) can0 300#035A0B5A1E0023
(1617469271.243378) can0 454#035A0B5A1E0023
(1617469271.260951) can0 201#A203000062
(1617469271.273092) can0 203#0000000000000400
(1617469271.288741) can0 401#028D000000000000
(1617469271.290411) can0 300#035A0B5A1E0023
(1617469271.293373) can0 454#035A0B5A1E0023
(1617469271.338396) can0 400#01000C00
(1617469271.340876) can0 300#035A0B5A1E0023
(1617469271.343372) can0 454#035A0B5A1E0023
(1617469271.360965) can0 201#A203000062
(1617469271.373089) can0 203#0000000000000400
(1617469271.389038) can0 401#048D000000000000
(1617469271.390558) can0 300#035A0B5A1E0023
(1617469271.393370) can0 454#035A0B5A1E0023
(1617469271.393650) can0 450#1001
(1617469271.437906) can0 451#10010000235A64
(1617469271.438208) can0 450#0601
(1617469271.440707) can0 400#01000C00
(1617469271.442700) can0 300#035A0B5A1E0023
(1617469271.443368) can0 454#035A0B5A1E0023
(1617469271.460967) can0 201#A203000062
(1617469271.473099) can0 203#0000000000000400
(1617469271.485088) can0 204#0000000000000000
(1617469271.487032) can0 451#060100001E
(1617469271.487343) can0 450#0801
(1617469271.490741) can0 401#048D000000000000
(1617469271.492291) can0 300#035A0B5A1E0023
(1617469271.493371) can0 454#035A0B5A1E0023
(1617469271.497063) can0 202#DA0E0000C9240500
(1617469271.536954) can0 451#0801000028
(1617469271.537262) can0 450#0901
(1617469271.540192) can0 400#01000C00
(1617469271.541901) can0 300#035A0B5A1E0023
(1617469271.543369) can0 454#035A0B5A1E0023
(1617469271.560967) can0 201#A203000062
(1617469271.573093) can0 203#0000000000000400
(1617469271.587451) can0 451#090100005F
(1617469271.590701) can0 401#048D000000000000
(1617469271.593112) can0 300#035A0B5A1E0023
(1617469271.593544) can0 454#035A0B5A1E0023
(1617469271.639622) can0 400#01000C00
(1617469271.641963) can0 300#035A0B5A1E0023
(1617469271.643373) can0 454#035A0B5A1E0023
(1617469271.660973) can0 201#A203000062
(1617469271.673102) can0 203#0000000000000400
(1617469271.689033) can0 401#048D000000000000
(1617469271.690637) can0 300#035A0B5A1E0023
(1617469271.693368) can0 454#035A0B5A1E0023
(1617469271.738687) can0 400#01000C00
(1617469271.740404) can0 300#035A0B5A1E0023
(1617469271.743367) can0 454#035A0B5A1E0023
(1617469271.760972) can0 201#A203000062
(1617469271.773093) can0 203#0000000000000400
(1617469271.788648) can0 401#048D000000000000
(1617469271.790565) can0 300#035A0B5A1E0023
(1617469271.793364) can0 454#035A0B5A1E0023
(1617469271.838591) can0 400#01000C00
(1617469271.840309) can0 300#035A0B5A1E0023
(1617469271.843363) can0 454#035A0B5A1E0023
(1617469271.860976) can0 201#A203000062
(1617469271.873106) can0 203#0000000000000400
(1617469271.888204) can0 403#590000009CDC0500
(1617469271.893368) can0 454#035A0B5A1E0023
(1617469271.938783) can0 400#01000C00
(1617469271.940778) can0 300#035A0B5A1E0023
(1617469271.943365) can0 454#035A0B5A1E0023
(1617469271.943644) can0 450#1001
(1617469271.960978) can0 201#A203000062
(1617469271.973098) can0 203#0000000000000400
(1617469271.986891) can0 451#10010000235A64
(1617469271.987190) can0 450#0601
(1617469271.990416) can0 401#008D000000000000
(1617469271.991979) can0 300#035A0B5A1E0023
(1617469271.993362) can0 454#035A0B5A1E0023
(1617469272.037605) can0 451#060100001E
(1617469272.037913) can0 450#0801
(1617469272.040475) can0 400#01000C00
(1617469272.042447) can0 300#035A0B5A1E0023
(1617469272.043367) can0 454#035A0B5A1E0023
(1617469272.060978) can0 201#A203000062
(1617469272.073111) can0 203#0000000000000400
(1617469272.087081) can0 451#0801000028
(1617469272.087386) can0 450#0901
(1617469272.090792) can0 401#008D000000000000
(1617469272.092342) can0 300#035A0B5A1E0023
(1617469272.093361) can0 454#035A0B5A1E0023
(1617469272.137001) can0 451#090100005F
(1617469272.140625) can0 400#01000C00
(1617469272.142336) can0 300#035A0B5A1E0023
(1617469272.143363) can0 454#035A0B5A1E0023
(1617469272.160981) can0 201#A203000062
(1617469272.173105) can0 203#0000000000000400
(1617469272.190594) can0 401#008D000000000000
(1617469272.192434) can0 300#035A0B5A1E0023
(1617469272.193367) can0 454#035A0B5A1E0023
(1617469272.238504) can0 400#01000C00
(1617469272.240486) can0 300#035A0B5A1E0023
(1617469272.243360) can0 454#035A0B5A1E0023
(1617469272.260990) can0 201#AA00000062
(1617469272.273113) can0 203#0000000000000400
(1617469272.288813) can0 401#008D000000000000
(1617469272.290450) can0 300#035A0B5A1E0023
(1617469272.293362) can0 454#035A0B5A1E0023
(1617469272.338739) can0 400#01000C00
(1617469272.340453) can0 300#035A0B5A1E0023
(1617469272.343361) can0 454#035A0B5A1E0023
(1617469272.360993) can0 201#AA00000062
(1617469272.373111) can0 203#0000000000000400
(1617469272.387979) can0 401#018D000000000000
(1617469272.389612) can0 300#035A0B5A1E0023
(1617469272.393359) can0 454#035A0B5A1E0023
(1617469272.440037) can0 400#01000C00
(1617469272.441733) can0 300#035A0B5A1E0023
(1617469272.443364) can0 454#035A0B5A1E0023
(1617469272.460993) can0 201#AA00000062
(1617469272.473118) can0 203#0000000000000400
(1617469272.485110) can0 204#0000000000000000
(1617469272.489344) can0 401#018D000000000000
(1617469272.490901) can0 300#035A0B5A1E0023
(1617469272.493356) can0 454#035A0B5A1E0023
(1617469272.493636) can0 450#1001
(1617469272.497088) can0 202#DA0E0000CB240500
(1617469272.509064) can0 666#5207010152016226
(1617469272.521093) can0 665#0000000053175300
(1617469272.533103) can0 200#1E0008C901000200
(1617469272.537287) can0 451#10010000235A64
(1617469272.537591) can0 450#0601
(1617469272.540680) can0 400#01000C00
(1617469272.542374) can0 300#035A0B5A1E0023
(1617469272.543358) can0 454#035A0B5A1E0023
(1617469272.561008) can0 201#AA00000062
(1617469272.573113) can0 203#0000000000000400
